# vsim -c work.top "+UVM_TESTNAME=ApbWriteSlave1Test" -do "run -all; exit" -l logs/ApbWriteSlave1Test.log 
# Start time: 14:19:49 on May 26,2025
# ** Note: (vsim-3813) Design is being optimized due to module recompilation...
# ** Note: (vopt-143) Recognized 1 FSM in module "master_bridge(fast)".
# ** Warning: ApbTop.sv(12): (vopt-2685) [TFMPC] - Too few port connections for 'dut'.  Expected 9, found 8.
# ** Warning: ApbTop.sv(12): (vopt-2718) [TFMPC] - Missing connection for port 'PSLVERR'.
# //  Questa Sim
# //  Version 10.6c linux Jul 25 2017
# //
# //  Copyright 1991-2017 Mentor Graphics Corporation
# //  All Rights Reserved.
# //
# //  QuestaSim and its associated documentation contain trade
# //  secrets and commercial or financial information that are the property of
# //  Mentor Graphics Corporation and are privileged, confidential,
# //  and exempt from disclosure under the Freedom of Information Act,
# //  5 U.S.C. Section 552. Furthermore, this information
# //  is prohibited from disclosure under the Trade Secrets Act,
# //  18 U.S.C. Section 1905.
# //
# Loading sv_std.std
# Loading mtiUvm.uvm_pkg
# Loading work.ApbTop_sv_unit(fast)
# Loading work.top(fast)
# Loading work.APB_Protocol(fast)
# Loading work.master_bridge(fast)
# Loading work.slave1(fast)
# Loading work.slave2(fast)
# Loading work.ApbInterface(fast)
# Loading mtiUvm.questa_uvm_pkg(fast)
# Loading work.ApbInterface(fast)
# Loading /tools/mentor/questasim_10.6c/questasim/uvm-1.1d/linux/uvm_dpi.so
# run -all
# ----------------------------------------------------------------
# UVM-1.1d
# (C) 2007-2013 Mentor Graphics Corporation
# (C) 2007-2013 Cadence Design Systems, Inc.
# (C) 2006-2013 Synopsys, Inc.
# (C) 2011-2013 Cypress Semiconductor Corp.
# ----------------------------------------------------------------
# 
#   ***********       IMPORTANT RELEASE NOTES         ************
# 
#   You are using a version of the UVM library that has been compiled
#   with `UVM_NO_DEPRECATED undefined.
#   See http://www.eda.org/svdb/view.php?id=3313 for more details.
# 
#   You are using a version of the UVM library that has been compiled
#   with `UVM_OBJECT_MUST_HAVE_CONSTRUCTOR undefined.
#   See http://www.eda.org/svdb/view.php?id=3770 for more details.
# 
#       (Specify +UVM_NO_RELNOTES to turn off this notice)
# 
# UVM_INFO verilog_src/questa_uvm_pkg-1.2/src/questa_uvm_pkg.sv(215) @ 0: reporter [Questa UVM] QUESTA_UVM-1.2.3
# UVM_INFO verilog_src/questa_uvm_pkg-1.2/src/questa_uvm_pkg.sv(217) @ 0: reporter [Questa UVM]  questa_uvm::init(+struct)
# UVM_INFO @ 0: reporter [RNTST] Running test ApbWriteSlave1Test...
# UVM_INFO @ 0: reporter [UVMTOP] UVM testbench topology:
# ------------------------------------------------------------------
# Name                         Type                      Size  Value
# ------------------------------------------------------------------
# uvm_test_top                 ApbWriteSlave1Test        -     @471 
#   env_h                      ApbEnvironment            -     @478 
#     act_h                    ApbActiveAgent            -     @485 
#       drv_h                  ApbDriver                 -     @537 
#         rsp_port             uvm_analysis_port         -     @552 
#         seq_item_port        uvm_seq_item_pull_port    -     @544 
#       ip_mon_h               ApbIpMonitor              -     @669 
#         item_collected_port  uvm_analysis_port         -     @676 
#       seqr_h                 ApbSequencer              -     @560 
#         rsp_export           uvm_analysis_export       -     @567 
#         seq_item_export      uvm_seq_item_pull_imp     -     @661 
#         arbitration_queue    array                     0     -    
#         lock_queue           array                     0     -    
#         num_last_reqs        integral                  32    'd1  
#         num_last_rsps        integral                  32    'd1  
#     cov_h                    ApbCoverage               -     @506 
#       analysis_imp           uvm_analysis_imp          -     @513 
#       ip_mon_imp             uvm_analysis_imp_ip_mon   -     @521 
#       op_mon_imp             uvm_analysis_imp_op_mon   -     @529 
#     pass_h                   ApbPassiveAgent           -     @492 
#       op_mon_h               ApbOpMonitor              -     @695 
#         item_collected_port  uvm_analysis_port         -     @702 
#     scb_h                    ApbScoreboard             -     @499 
#       in_mon_port            uvm_analysis_imp_in_mon   -     @715 
#       out_mon_port           uvm_analysis_imp_out_mon  -     @723 
# ------------------------------------------------------------------
# 
# UVM_INFO ApbScoreboard.sv(39) @ 5: uvm_test_top.env_h.scb_h [SB] EXPECTED TRANSACTION: size = 1 | TRANSFER = 0 | RW = 0 | WDATA = 0 | WPADDR = 0 | RPADDR = 0
# ----------------------------------------------INPUT MONITOR-------------------------------------------------------
# --------------------------------------------
# Name                 Type        Size  Value
# --------------------------------------------
# ip_mon_h             ApbSeqItem  -     @685 
#   apb_write_paddr    integral    9     'h0  
#   apb_read_paddr     integral    9     'h0  
#   apb_write_data     integral    8     'h0  
#   transfer           integral    1     'h0  
#   READ_WRITE         integral    1     'h0  
#   apb_read_data_out  integral    8     'h0  
# --------------------------------------------
# WRITE ADDRESS = 000000000  READ ADDRESS =000000000 
# THE RESET IS 0
# ----------------------------------------------INPUT MONITOR-------------------------------------------------------
# UVM_INFO ApbScoreboard.sv(46) @ 5: uvm_test_top.env_h.scb_h [SB] ACTUAL TRANSACTION: size = 1 | TRANSFER = 0 | RW = 0 | WPADDR = 0 | WDATA = 0 | RDATA = 0 | RPADDR = 0
# ----------------------------------------------OUTPUT MONITOR-------------------------------------------------------
# UVM_INFO ApbOpMonitor.sv(43) @ 5: uvm_test_top.env_h.pass_h.op_mon_h [OUTPUT MONITOR] [5] transfer =x , READ_WRITE =x, apb_write_paddr =xxxxxxxxx , apb_write_data =xx , apb_read_paddr =x, apb_read_data=x
# ----------------------------------------------OUTPUT MONITOR-------------------------------------------------------
# UVM_INFO ApbScoreboard.sv(39) @ 15: uvm_test_top.env_h.scb_h [SB] EXPECTED TRANSACTION: size = 1 | TRANSFER = 0 | RW = 0 | WDATA = 0 | WPADDR = 0 | RPADDR = 0
# ----------------------------------------------INPUT MONITOR-------------------------------------------------------
# --------------------------------------------
# Name                 Type        Size  Value
# --------------------------------------------
# ip_mon_h             ApbSeqItem  -     @685 
#   apb_write_paddr    integral    9     'h0  
#   apb_read_paddr     integral    9     'h0  
#   apb_write_data     integral    8     'h0  
#   transfer           integral    1     'h0  
#   READ_WRITE         integral    1     'h0  
#   apb_read_data_out  integral    8     'h0  
# --------------------------------------------
# WRITE ADDRESS = 000000000  READ ADDRESS =000000000 
# THE RESET IS 0
# ----------------------------------------------INPUT MONITOR-------------------------------------------------------
# UVM_INFO ApbDriver.sv(63) @ 25: uvm_test_top.env_h.act_h.drv_h [DRIVER] [25] presetn = 1, transfer = 1, READ_WRITE = 0, apb_write_paddr = 003, apb_write_data = d1, apb_read_paddr = 1fe
# ---------------------------------DRIVER-------------------
# --------------------------------------------------------------------------------------
# Name                           Type        Size  Value                                
# --------------------------------------------------------------------------------------
# txn                            ApbSeqItem  -     @743                                 
#   apb_write_paddr              integral    9     'h3                                  
#   apb_read_paddr               integral    9     'h1fe                                
#   apb_write_data               integral    8     'hd1                                 
#   transfer                     integral    1     'h1                                  
#   READ_WRITE                   integral    1     'h0                                  
#   apb_read_data_out            integral    8     'h0                                  
#   begin_time                   time        64    15                                   
#   depth                        int         32    'd2                                  
#   parent sequence (name)       string      5     seq_h                                
#   parent sequence (full name)  string      37    uvm_test_top.env_h.act_h.seqr_h.seq_h
#   sequencer                    string      31    uvm_test_top.env_h.act_h.seqr_h      
# --------------------------------------------------------------------------------------
# --------------------------------------DRIVER----------------------------------
# UVM_INFO ApbScoreboard.sv(39) @ 25: uvm_test_top.env_h.scb_h [SB] EXPECTED TRANSACTION: size = 2 | TRANSFER = 0 | RW = 0 | WDATA = 0 | WPADDR = 0 | RPADDR = 0
# ----------------------------------------------INPUT MONITOR-------------------------------------------------------
# --------------------------------------------
# Name                 Type        Size  Value
# --------------------------------------------
# ip_mon_h             ApbSeqItem  -     @685 
#   apb_write_paddr    integral    9     'h0  
#   apb_read_paddr     integral    9     'h0  
#   apb_write_data     integral    8     'h0  
#   transfer           integral    1     'h0  
#   READ_WRITE         integral    1     'h0  
#   apb_read_data_out  integral    8     'h0  
# --------------------------------------------
# WRITE ADDRESS = 000000000  READ ADDRESS =000000000 
# THE RESET IS 1
# ----------------------------------------------INPUT MONITOR-------------------------------------------------------
# UVM_INFO ApbScoreboard.sv(46) @ 25: uvm_test_top.env_h.scb_h [SB] ACTUAL TRANSACTION: size = 1 | TRANSFER = 0 | RW = 0 | WPADDR = 0 | WDATA = 0 | RDATA = 0 | RPADDR = 0
# ----------------------------------------------OUTPUT MONITOR-------------------------------------------------------
# UVM_INFO ApbOpMonitor.sv(43) @ 25: uvm_test_top.env_h.pass_h.op_mon_h [OUTPUT MONITOR] [25] transfer =x , READ_WRITE =x, apb_write_paddr =xxxxxxxxx , apb_write_data =xx , apb_read_paddr =x, apb_read_data=x
# ----------------------------------------------OUTPUT MONITOR-------------------------------------------------------
# UVM_INFO ApbDriver.sv(63) @ 35: uvm_test_top.env_h.act_h.drv_h [DRIVER] [35] presetn = 1, transfer = 1, READ_WRITE = 0, apb_write_paddr = 003, apb_write_data = d1, apb_read_paddr = 1fe
# ---------------------------------DRIVER-------------------
# --------------------------------------------------------------------------------------
# Name                           Type        Size  Value                                
# --------------------------------------------------------------------------------------
# txn                            ApbSeqItem  -     @743                                 
#   apb_write_paddr              integral    9     'h3                                  
#   apb_read_paddr               integral    9     'h1fe                                
#   apb_write_data               integral    8     'hd1                                 
#   transfer                     integral    1     'h1                                  
#   READ_WRITE                   integral    1     'h0                                  
#   apb_read_data_out            integral    8     'h0                                  
#   begin_time                   time        64    25                                   
#   end_time                     time        64    25                                   
#   depth                        int         32    'd2                                  
#   parent sequence (name)       string      5     seq_h                                
#   parent sequence (full name)  string      37    uvm_test_top.env_h.act_h.seqr_h.seq_h
#   sequencer                    string      31    uvm_test_top.env_h.act_h.seqr_h      
# --------------------------------------------------------------------------------------
# --------------------------------------DRIVER----------------------------------
# UVM_INFO ApbScoreboard.sv(39) @ 35: uvm_test_top.env_h.scb_h [SB] EXPECTED TRANSACTION: size = 2 | TRANSFER = 1 | RW = 0 | WDATA = d1 | WPADDR = 3 | RPADDR = 0
# ----------------------------------------------INPUT MONITOR-------------------------------------------------------
# --------------------------------------------
# Name                 Type        Size  Value
# --------------------------------------------
# ip_mon_h             ApbSeqItem  -     @685 
#   apb_write_paddr    integral    9     'h3  
#   apb_read_paddr     integral    9     'h0  
#   apb_write_data     integral    8     'hd1 
#   transfer           integral    1     'h1  
#   READ_WRITE         integral    1     'h0  
#   apb_read_data_out  integral    8     'h0  
# --------------------------------------------
# WRITE ADDRESS = 000000011  READ ADDRESS =000000000 
# THE RESET IS 1
# ----------------------------------------------INPUT MONITOR-------------------------------------------------------
# WRITE ADDRESS == 000000011
# SLAVE 1
# WRITE_ADDRESS_VALIDITY: ASSERTION PASS
# TRANSFER_VALIDITY: ASSERTION PASS
# UVM_INFO ApbDriver.sv(63) @ 45: uvm_test_top.env_h.act_h.drv_h [DRIVER] [45] presetn = 1, transfer = 1, READ_WRITE = 0, apb_write_paddr = 000, apb_write_data = 95, apb_read_paddr = 17c
# ---------------------------------DRIVER-------------------
# --------------------------------------------------------------------------------------
# Name                           Type        Size  Value                                
# --------------------------------------------------------------------------------------
# txn                            ApbSeqItem  -     @772                                 
#   apb_write_paddr              integral    9     'h0                                  
#   apb_read_paddr               integral    9     'h17c                                
#   apb_write_data               integral    8     'h95                                 
#   transfer                     integral    1     'h1                                  
#   READ_WRITE                   integral    1     'h0                                  
#   apb_read_data_out            integral    8     'h0                                  
#   begin_time                   time        64    35                                   
#   depth                        int         32    'd2                                  
#   parent sequence (name)       string      5     seq_h                                
#   parent sequence (full name)  string      37    uvm_test_top.env_h.act_h.seqr_h.seq_h
#   sequencer                    string      31    uvm_test_top.env_h.act_h.seqr_h      
# --------------------------------------------------------------------------------------
# --------------------------------------DRIVER----------------------------------
# UVM_INFO ApbScoreboard.sv(39) @ 45: uvm_test_top.env_h.scb_h [SB] EXPECTED TRANSACTION: size = 3 | TRANSFER = 1 | RW = 0 | WDATA = d1 | WPADDR = 3 | RPADDR = 0
# ----------------------------------------------INPUT MONITOR-------------------------------------------------------
# --------------------------------------------
# Name                 Type        Size  Value
# --------------------------------------------
# ip_mon_h             ApbSeqItem  -     @685 
#   apb_write_paddr    integral    9     'h3  
#   apb_read_paddr     integral    9     'h0  
#   apb_write_data     integral    8     'hd1 
#   transfer           integral    1     'h1  
#   READ_WRITE         integral    1     'h0  
#   apb_read_data_out  integral    8     'h0  
# --------------------------------------------
# WRITE ADDRESS = 000000011  READ ADDRESS =000000000 
# THE RESET IS 1
# ----------------------------------------------INPUT MONITOR-------------------------------------------------------
# UVM_INFO ApbScoreboard.sv(46) @ 45: uvm_test_top.env_h.scb_h [SB] ACTUAL TRANSACTION: size = 1 | TRANSFER = 1 | RW = 0 | WPADDR = 3 | WDATA = d1 | RDATA = 0 | RPADDR = 0
# ----------------------------------------------OUTPUT MONITOR-------------------------------------------------------
# UVM_INFO ApbOpMonitor.sv(43) @ 45: uvm_test_top.env_h.pass_h.op_mon_h [OUTPUT MONITOR] [45] transfer =1 , READ_WRITE =0, apb_write_paddr =000000011 , apb_write_data =d1 , apb_read_paddr =x, apb_read_data=x
# ----------------------------------------------OUTPUT MONITOR-------------------------------------------------------
# FOR COMPARING : WRITE DATA =d1 READ DATA OUT =xx
# -------------------------------------------------------------------WRITE--PASS---------------------------------------------------------------------
# UVM_INFO ApbScoreboard.sv(84) @ 45: uvm_test_top.env_h.scb_h [COMPARE] WRITE PASS | EXPECTED WDATA = d1  ACTUAL WDATA =d1 |EXPECTED  WRITE ADDR = 3 ACTUAL WRITE ADDR =3
# WRITE_ADDRESS_VALIDITY: ASSERTION PASS
# TRANSFER_VALIDITY: ASSERTION PASS
# UVM_INFO ApbDriver.sv(63) @ 55: uvm_test_top.env_h.act_h.drv_h [DRIVER] [55] presetn = 1, transfer = 1, READ_WRITE = 0, apb_write_paddr = 000, apb_write_data = 95, apb_read_paddr = 17c
# ---------------------------------DRIVER-------------------
# --------------------------------------------------------------------------------------
# Name                           Type        Size  Value                                
# --------------------------------------------------------------------------------------
# txn                            ApbSeqItem  -     @772                                 
#   apb_write_paddr              integral    9     'h0                                  
#   apb_read_paddr               integral    9     'h17c                                
#   apb_write_data               integral    8     'h95                                 
#   transfer                     integral    1     'h1                                  
#   READ_WRITE                   integral    1     'h0                                  
#   apb_read_data_out            integral    8     'h0                                  
#   begin_time                   time        64    45                                   
#   end_time                     time        64    45                                   
#   depth                        int         32    'd2                                  
#   parent sequence (name)       string      5     seq_h                                
#   parent sequence (full name)  string      37    uvm_test_top.env_h.act_h.seqr_h.seq_h
#   sequencer                    string      31    uvm_test_top.env_h.act_h.seqr_h      
# --------------------------------------------------------------------------------------
# --------------------------------------DRIVER----------------------------------
# UVM_INFO ApbScoreboard.sv(39) @ 55: uvm_test_top.env_h.scb_h [SB] EXPECTED TRANSACTION: size = 3 | TRANSFER = 1 | RW = 0 | WDATA = 95 | WPADDR = 0 | RPADDR = 0
# ----------------------------------------------INPUT MONITOR-------------------------------------------------------
# --------------------------------------------
# Name                 Type        Size  Value
# --------------------------------------------
# ip_mon_h             ApbSeqItem  -     @685 
#   apb_write_paddr    integral    9     'h0  
#   apb_read_paddr     integral    9     'h0  
#   apb_write_data     integral    8     'h95 
#   transfer           integral    1     'h1  
#   READ_WRITE         integral    1     'h0  
#   apb_read_data_out  integral    8     'h0  
# --------------------------------------------
# WRITE ADDRESS = 000000000  READ ADDRESS =000000000 
# THE RESET IS 1
# ----------------------------------------------INPUT MONITOR-------------------------------------------------------
# WRITE ADDRESS == 000000000
# SLAVE 1
# WRITE_ADDRESS_VALIDITY: ASSERTION PASS
# TRANSFER_VALIDITY: ASSERTION PASS
# UVM_INFO ApbDriver.sv(63) @ 65: uvm_test_top.env_h.act_h.drv_h [DRIVER] [65] presetn = 1, transfer = 1, READ_WRITE = 0, apb_write_paddr = 001, apb_write_data = 41, apb_read_paddr = 05f
# ---------------------------------DRIVER-------------------
# --------------------------------------------------------------------------------------
# Name                           Type        Size  Value                                
# --------------------------------------------------------------------------------------
# txn                            ApbSeqItem  -     @776                                 
#   apb_write_paddr              integral    9     'h1                                  
#   apb_read_paddr               integral    9     'h5f                                 
#   apb_write_data               integral    8     'h41                                 
#   transfer                     integral    1     'h1                                  
#   READ_WRITE                   integral    1     'h0                                  
#   apb_read_data_out            integral    8     'h0                                  
#   begin_time                   time        64    55                                   
#   depth                        int         32    'd2                                  
#   parent sequence (name)       string      5     seq_h                                
#   parent sequence (full name)  string      37    uvm_test_top.env_h.act_h.seqr_h.seq_h
#   sequencer                    string      31    uvm_test_top.env_h.act_h.seqr_h      
# --------------------------------------------------------------------------------------
# --------------------------------------DRIVER----------------------------------
# UVM_INFO ApbScoreboard.sv(39) @ 65: uvm_test_top.env_h.scb_h [SB] EXPECTED TRANSACTION: size = 4 | TRANSFER = 1 | RW = 0 | WDATA = 95 | WPADDR = 0 | RPADDR = 0
# ----------------------------------------------INPUT MONITOR-------------------------------------------------------
# --------------------------------------------
# Name                 Type        Size  Value
# --------------------------------------------
# ip_mon_h             ApbSeqItem  -     @685 
#   apb_write_paddr    integral    9     'h0  
#   apb_read_paddr     integral    9     'h0  
#   apb_write_data     integral    8     'h95 
#   transfer           integral    1     'h1  
#   READ_WRITE         integral    1     'h0  
#   apb_read_data_out  integral    8     'h0  
# --------------------------------------------
# WRITE ADDRESS = 000000000  READ ADDRESS =000000000 
# THE RESET IS 1
# ----------------------------------------------INPUT MONITOR-------------------------------------------------------
# UVM_INFO ApbScoreboard.sv(46) @ 65: uvm_test_top.env_h.scb_h [SB] ACTUAL TRANSACTION: size = 1 | TRANSFER = 1 | RW = 0 | WPADDR = 0 | WDATA = 95 | RDATA = 0 | RPADDR = 0
# ----------------------------------------------OUTPUT MONITOR-------------------------------------------------------
# UVM_INFO ApbOpMonitor.sv(43) @ 65: uvm_test_top.env_h.pass_h.op_mon_h [OUTPUT MONITOR] [65] transfer =1 , READ_WRITE =0, apb_write_paddr =000000000 , apb_write_data =95 , apb_read_paddr =x, apb_read_data=x
# ----------------------------------------------OUTPUT MONITOR-------------------------------------------------------
# FOR COMPARING : WRITE DATA =95 READ DATA OUT =95
# -------------------------------------------------------------------WRITE--PASS---------------------------------------------------------------------
# UVM_INFO ApbScoreboard.sv(84) @ 65: uvm_test_top.env_h.scb_h [COMPARE] WRITE PASS | EXPECTED WDATA = 95  ACTUAL WDATA =95 |EXPECTED  WRITE ADDR = 0 ACTUAL WRITE ADDR =0
# WRITE_ADDRESS_VALIDITY: ASSERTION PASS
# TRANSFER_VALIDITY: ASSERTION PASS
# UVM_INFO ApbDriver.sv(63) @ 75: uvm_test_top.env_h.act_h.drv_h [DRIVER] [75] presetn = 1, transfer = 1, READ_WRITE = 0, apb_write_paddr = 001, apb_write_data = 41, apb_read_paddr = 05f
# ---------------------------------DRIVER-------------------
# --------------------------------------------------------------------------------------
# Name                           Type        Size  Value                                
# --------------------------------------------------------------------------------------
# txn                            ApbSeqItem  -     @776                                 
#   apb_write_paddr              integral    9     'h1                                  
#   apb_read_paddr               integral    9     'h5f                                 
#   apb_write_data               integral    8     'h41                                 
#   transfer                     integral    1     'h1                                  
#   READ_WRITE                   integral    1     'h0                                  
#   apb_read_data_out            integral    8     'h0                                  
#   begin_time                   time        64    65                                   
#   end_time                     time        64    65                                   
#   depth                        int         32    'd2                                  
#   parent sequence (name)       string      5     seq_h                                
#   parent sequence (full name)  string      37    uvm_test_top.env_h.act_h.seqr_h.seq_h
#   sequencer                    string      31    uvm_test_top.env_h.act_h.seqr_h      
# --------------------------------------------------------------------------------------
# --------------------------------------DRIVER----------------------------------
# UVM_INFO ApbScoreboard.sv(39) @ 75: uvm_test_top.env_h.scb_h [SB] EXPECTED TRANSACTION: size = 4 | TRANSFER = 1 | RW = 0 | WDATA = 41 | WPADDR = 1 | RPADDR = 0
# ----------------------------------------------INPUT MONITOR-------------------------------------------------------
# --------------------------------------------
# Name                 Type        Size  Value
# --------------------------------------------
# ip_mon_h             ApbSeqItem  -     @685 
#   apb_write_paddr    integral    9     'h1  
#   apb_read_paddr     integral    9     'h0  
#   apb_write_data     integral    8     'h41 
#   transfer           integral    1     'h1  
#   READ_WRITE         integral    1     'h0  
#   apb_read_data_out  integral    8     'h0  
# --------------------------------------------
# WRITE ADDRESS = 000000001  READ ADDRESS =000000000 
# THE RESET IS 1
# ----------------------------------------------INPUT MONITOR-------------------------------------------------------
# WRITE ADDRESS == 000000001
# SLAVE 1
# WRITE_ADDRESS_VALIDITY: ASSERTION PASS
# TRANSFER_VALIDITY: ASSERTION PASS
# UVM_INFO ApbDriver.sv(63) @ 85: uvm_test_top.env_h.act_h.drv_h [DRIVER] [85] presetn = 1, transfer = 1, READ_WRITE = 0, apb_write_paddr = 006, apb_write_data = 8e, apb_read_paddr = 082
# ---------------------------------DRIVER-------------------
# --------------------------------------------------------------------------------------
# Name                           Type        Size  Value                                
# --------------------------------------------------------------------------------------
# txn                            ApbSeqItem  -     @780                                 
#   apb_write_paddr              integral    9     'h6                                  
#   apb_read_paddr               integral    9     'h82                                 
#   apb_write_data               integral    8     'h8e                                 
#   transfer                     integral    1     'h1                                  
#   READ_WRITE                   integral    1     'h0                                  
#   apb_read_data_out            integral    8     'h0                                  
#   begin_time                   time        64    75                                   
#   depth                        int         32    'd2                                  
#   parent sequence (name)       string      5     seq_h                                
#   parent sequence (full name)  string      37    uvm_test_top.env_h.act_h.seqr_h.seq_h
#   sequencer                    string      31    uvm_test_top.env_h.act_h.seqr_h      
# --------------------------------------------------------------------------------------
# --------------------------------------DRIVER----------------------------------
# UVM_INFO ApbScoreboard.sv(39) @ 85: uvm_test_top.env_h.scb_h [SB] EXPECTED TRANSACTION: size = 5 | TRANSFER = 1 | RW = 0 | WDATA = 41 | WPADDR = 1 | RPADDR = 0
# ----------------------------------------------INPUT MONITOR-------------------------------------------------------
# --------------------------------------------
# Name                 Type        Size  Value
# --------------------------------------------
# ip_mon_h             ApbSeqItem  -     @685 
#   apb_write_paddr    integral    9     'h1  
#   apb_read_paddr     integral    9     'h0  
#   apb_write_data     integral    8     'h41 
#   transfer           integral    1     'h1  
#   READ_WRITE         integral    1     'h0  
#   apb_read_data_out  integral    8     'h0  
# --------------------------------------------
# WRITE ADDRESS = 000000001  READ ADDRESS =000000000 
# THE RESET IS 1
# ----------------------------------------------INPUT MONITOR-------------------------------------------------------
# UVM_INFO ApbScoreboard.sv(46) @ 85: uvm_test_top.env_h.scb_h [SB] ACTUAL TRANSACTION: size = 1 | TRANSFER = 1 | RW = 0 | WPADDR = 1 | WDATA = 41 | RDATA = 0 | RPADDR = 0
# ----------------------------------------------OUTPUT MONITOR-------------------------------------------------------
# UVM_INFO ApbOpMonitor.sv(43) @ 85: uvm_test_top.env_h.pass_h.op_mon_h [OUTPUT MONITOR] [85] transfer =1 , READ_WRITE =0, apb_write_paddr =000000001 , apb_write_data =41 , apb_read_paddr =x, apb_read_data=x
# ----------------------------------------------OUTPUT MONITOR-------------------------------------------------------
# FOR COMPARING : WRITE DATA =41 READ DATA OUT =95
# -------------------------------------------------------------------WRITE--PASS---------------------------------------------------------------------
# UVM_INFO ApbScoreboard.sv(84) @ 85: uvm_test_top.env_h.scb_h [COMPARE] WRITE PASS | EXPECTED WDATA = 41  ACTUAL WDATA =41 |EXPECTED  WRITE ADDR = 1 ACTUAL WRITE ADDR =1
# WRITE_ADDRESS_VALIDITY: ASSERTION PASS
# TRANSFER_VALIDITY: ASSERTION PASS
# UVM_INFO ApbDriver.sv(63) @ 95: uvm_test_top.env_h.act_h.drv_h [DRIVER] [95] presetn = 1, transfer = 1, READ_WRITE = 0, apb_write_paddr = 006, apb_write_data = 8e, apb_read_paddr = 082
# ---------------------------------DRIVER-------------------
# --------------------------------------------------------------------------------------
# Name                           Type        Size  Value                                
# --------------------------------------------------------------------------------------
# txn                            ApbSeqItem  -     @780                                 
#   apb_write_paddr              integral    9     'h6                                  
#   apb_read_paddr               integral    9     'h82                                 
#   apb_write_data               integral    8     'h8e                                 
#   transfer                     integral    1     'h1                                  
#   READ_WRITE                   integral    1     'h0                                  
#   apb_read_data_out            integral    8     'h0                                  
#   begin_time                   time        64    85                                   
#   end_time                     time        64    85                                   
#   depth                        int         32    'd2                                  
#   parent sequence (name)       string      5     seq_h                                
#   parent sequence (full name)  string      37    uvm_test_top.env_h.act_h.seqr_h.seq_h
#   sequencer                    string      31    uvm_test_top.env_h.act_h.seqr_h      
# --------------------------------------------------------------------------------------
# --------------------------------------DRIVER----------------------------------
# UVM_INFO ApbScoreboard.sv(39) @ 95: uvm_test_top.env_h.scb_h [SB] EXPECTED TRANSACTION: size = 5 | TRANSFER = 1 | RW = 0 | WDATA = 8e | WPADDR = 6 | RPADDR = 0
# ----------------------------------------------INPUT MONITOR-------------------------------------------------------
# --------------------------------------------
# Name                 Type        Size  Value
# --------------------------------------------
# ip_mon_h             ApbSeqItem  -     @685 
#   apb_write_paddr    integral    9     'h6  
#   apb_read_paddr     integral    9     'h0  
#   apb_write_data     integral    8     'h8e 
#   transfer           integral    1     'h1  
#   READ_WRITE         integral    1     'h0  
#   apb_read_data_out  integral    8     'h0  
# --------------------------------------------
# WRITE ADDRESS = 000000110  READ ADDRESS =000000000 
# THE RESET IS 1
# ----------------------------------------------INPUT MONITOR-------------------------------------------------------
# WRITE ADDRESS == 000000110
# SLAVE 1
# WRITE_ADDRESS_VALIDITY: ASSERTION PASS
# TRANSFER_VALIDITY: ASSERTION PASS
# UVM_INFO ApbDriver.sv(63) @ 105: uvm_test_top.env_h.act_h.drv_h [DRIVER] [105] presetn = 1, transfer = 1, READ_WRITE = 0, apb_write_paddr = 008, apb_write_data = f1, apb_read_paddr = 02f
# ---------------------------------DRIVER-------------------
# --------------------------------------------------------------------------------------
# Name                           Type        Size  Value                                
# --------------------------------------------------------------------------------------
# txn                            ApbSeqItem  -     @784                                 
#   apb_write_paddr              integral    9     'h8                                  
#   apb_read_paddr               integral    9     'h2f                                 
#   apb_write_data               integral    8     'hf1                                 
#   transfer                     integral    1     'h1                                  
#   READ_WRITE                   integral    1     'h0                                  
#   apb_read_data_out            integral    8     'h0                                  
#   begin_time                   time        64    95                                   
#   depth                        int         32    'd2                                  
#   parent sequence (name)       string      5     seq_h                                
#   parent sequence (full name)  string      37    uvm_test_top.env_h.act_h.seqr_h.seq_h
#   sequencer                    string      31    uvm_test_top.env_h.act_h.seqr_h      
# --------------------------------------------------------------------------------------
# --------------------------------------DRIVER----------------------------------
# UVM_INFO ApbScoreboard.sv(39) @ 105: uvm_test_top.env_h.scb_h [SB] EXPECTED TRANSACTION: size = 6 | TRANSFER = 1 | RW = 0 | WDATA = 8e | WPADDR = 6 | RPADDR = 0
# ----------------------------------------------INPUT MONITOR-------------------------------------------------------
# --------------------------------------------
# Name                 Type        Size  Value
# --------------------------------------------
# ip_mon_h             ApbSeqItem  -     @685 
#   apb_write_paddr    integral    9     'h6  
#   apb_read_paddr     integral    9     'h0  
#   apb_write_data     integral    8     'h8e 
#   transfer           integral    1     'h1  
#   READ_WRITE         integral    1     'h0  
#   apb_read_data_out  integral    8     'h0  
# --------------------------------------------
# WRITE ADDRESS = 000000110  READ ADDRESS =000000000 
# THE RESET IS 1
# ----------------------------------------------INPUT MONITOR-------------------------------------------------------
# UVM_INFO ApbScoreboard.sv(46) @ 105: uvm_test_top.env_h.scb_h [SB] ACTUAL TRANSACTION: size = 1 | TRANSFER = 1 | RW = 0 | WPADDR = 6 | WDATA = 8e | RDATA = 0 | RPADDR = 0
# ----------------------------------------------OUTPUT MONITOR-------------------------------------------------------
# UVM_INFO ApbOpMonitor.sv(43) @ 105: uvm_test_top.env_h.pass_h.op_mon_h [OUTPUT MONITOR] [105] transfer =1 , READ_WRITE =0, apb_write_paddr =000000110 , apb_write_data =8e , apb_read_paddr =x, apb_read_data=x
# ----------------------------------------------OUTPUT MONITOR-------------------------------------------------------
# FOR COMPARING : WRITE DATA =8e READ DATA OUT =95
# -------------------------------------------------------------------WRITE--PASS---------------------------------------------------------------------
# UVM_INFO ApbScoreboard.sv(84) @ 105: uvm_test_top.env_h.scb_h [COMPARE] WRITE PASS | EXPECTED WDATA = 8e  ACTUAL WDATA =8e |EXPECTED  WRITE ADDR = 6 ACTUAL WRITE ADDR =6
# WRITE_ADDRESS_VALIDITY: ASSERTION PASS
# TRANSFER_VALIDITY: ASSERTION PASS
# UVM_INFO ApbDriver.sv(63) @ 115: uvm_test_top.env_h.act_h.drv_h [DRIVER] [115] presetn = 1, transfer = 1, READ_WRITE = 0, apb_write_paddr = 008, apb_write_data = f1, apb_read_paddr = 02f
# ---------------------------------DRIVER-------------------
# --------------------------------------------------------------------------------------
# Name                           Type        Size  Value                                
# --------------------------------------------------------------------------------------
# txn                            ApbSeqItem  -     @784                                 
#   apb_write_paddr              integral    9     'h8                                  
#   apb_read_paddr               integral    9     'h2f                                 
#   apb_write_data               integral    8     'hf1                                 
#   transfer                     integral    1     'h1                                  
#   READ_WRITE                   integral    1     'h0                                  
#   apb_read_data_out            integral    8     'h0                                  
#   begin_time                   time        64    105                                  
#   end_time                     time        64    105                                  
#   depth                        int         32    'd2                                  
#   parent sequence (name)       string      5     seq_h                                
#   parent sequence (full name)  string      37    uvm_test_top.env_h.act_h.seqr_h.seq_h
#   sequencer                    string      31    uvm_test_top.env_h.act_h.seqr_h      
# --------------------------------------------------------------------------------------
# --------------------------------------DRIVER----------------------------------
# UVM_INFO ApbScoreboard.sv(39) @ 115: uvm_test_top.env_h.scb_h [SB] EXPECTED TRANSACTION: size = 6 | TRANSFER = 1 | RW = 0 | WDATA = f1 | WPADDR = 8 | RPADDR = 0
# ----------------------------------------------INPUT MONITOR-------------------------------------------------------
# --------------------------------------------
# Name                 Type        Size  Value
# --------------------------------------------
# ip_mon_h             ApbSeqItem  -     @685 
#   apb_write_paddr    integral    9     'h8  
#   apb_read_paddr     integral    9     'h0  
#   apb_write_data     integral    8     'hf1 
#   transfer           integral    1     'h1  
#   READ_WRITE         integral    1     'h0  
#   apb_read_data_out  integral    8     'h0  
# --------------------------------------------
# WRITE ADDRESS = 000001000  READ ADDRESS =000000000 
# THE RESET IS 1
# ----------------------------------------------INPUT MONITOR-------------------------------------------------------
# WRITE ADDRESS == 000001000
# SLAVE 1
# WRITE_ADDRESS_VALIDITY: ASSERTION PASS
# TRANSFER_VALIDITY: ASSERTION PASS
# UVM_INFO ApbDriver.sv(63) @ 125: uvm_test_top.env_h.act_h.drv_h [DRIVER] [125] presetn = 1, transfer = 1, READ_WRITE = 0, apb_write_paddr = 007, apb_write_data = f4, apb_read_paddr = 1ad
# ---------------------------------DRIVER-------------------
# --------------------------------------------------------------------------------------
# Name                           Type        Size  Value                                
# --------------------------------------------------------------------------------------
# txn                            ApbSeqItem  -     @788                                 
#   apb_write_paddr              integral    9     'h7                                  
#   apb_read_paddr               integral    9     'h1ad                                
#   apb_write_data               integral    8     'hf4                                 
#   transfer                     integral    1     'h1                                  
#   READ_WRITE                   integral    1     'h0                                  
#   apb_read_data_out            integral    8     'h0                                  
#   begin_time                   time        64    115                                  
#   depth                        int         32    'd2                                  
#   parent sequence (name)       string      5     seq_h                                
#   parent sequence (full name)  string      37    uvm_test_top.env_h.act_h.seqr_h.seq_h
#   sequencer                    string      31    uvm_test_top.env_h.act_h.seqr_h      
# --------------------------------------------------------------------------------------
# --------------------------------------DRIVER----------------------------------
# UVM_INFO ApbScoreboard.sv(39) @ 125: uvm_test_top.env_h.scb_h [SB] EXPECTED TRANSACTION: size = 7 | TRANSFER = 1 | RW = 0 | WDATA = f1 | WPADDR = 8 | RPADDR = 0
# ----------------------------------------------INPUT MONITOR-------------------------------------------------------
# --------------------------------------------
# Name                 Type        Size  Value
# --------------------------------------------
# ip_mon_h             ApbSeqItem  -     @685 
#   apb_write_paddr    integral    9     'h8  
#   apb_read_paddr     integral    9     'h0  
#   apb_write_data     integral    8     'hf1 
#   transfer           integral    1     'h1  
#   READ_WRITE         integral    1     'h0  
#   apb_read_data_out  integral    8     'h0  
# --------------------------------------------
# WRITE ADDRESS = 000001000  READ ADDRESS =000000000 
# THE RESET IS 1
# ----------------------------------------------INPUT MONITOR-------------------------------------------------------
# UVM_INFO ApbScoreboard.sv(46) @ 125: uvm_test_top.env_h.scb_h [SB] ACTUAL TRANSACTION: size = 1 | TRANSFER = 1 | RW = 0 | WPADDR = 8 | WDATA = f1 | RDATA = 0 | RPADDR = 0
# ----------------------------------------------OUTPUT MONITOR-------------------------------------------------------
# UVM_INFO ApbOpMonitor.sv(43) @ 125: uvm_test_top.env_h.pass_h.op_mon_h [OUTPUT MONITOR] [125] transfer =1 , READ_WRITE =0, apb_write_paddr =000001000 , apb_write_data =f1 , apb_read_paddr =x, apb_read_data=x
# ----------------------------------------------OUTPUT MONITOR-------------------------------------------------------
# FOR COMPARING : WRITE DATA =f1 READ DATA OUT =95
# -------------------------------------------------------------------WRITE--PASS---------------------------------------------------------------------
# UVM_INFO ApbScoreboard.sv(84) @ 125: uvm_test_top.env_h.scb_h [COMPARE] WRITE PASS | EXPECTED WDATA = f1  ACTUAL WDATA =f1 |EXPECTED  WRITE ADDR = 8 ACTUAL WRITE ADDR =8
# WRITE_ADDRESS_VALIDITY: ASSERTION PASS
# TRANSFER_VALIDITY: ASSERTION PASS
# UVM_INFO ApbDriver.sv(63) @ 135: uvm_test_top.env_h.act_h.drv_h [DRIVER] [135] presetn = 1, transfer = 1, READ_WRITE = 0, apb_write_paddr = 007, apb_write_data = f4, apb_read_paddr = 1ad
# ---------------------------------DRIVER-------------------
# --------------------------------------------------------------------------------------
# Name                           Type        Size  Value                                
# --------------------------------------------------------------------------------------
# txn                            ApbSeqItem  -     @788                                 
#   apb_write_paddr              integral    9     'h7                                  
#   apb_read_paddr               integral    9     'h1ad                                
#   apb_write_data               integral    8     'hf4                                 
#   transfer                     integral    1     'h1                                  
#   READ_WRITE                   integral    1     'h0                                  
#   apb_read_data_out            integral    8     'h0                                  
#   begin_time                   time        64    125                                  
#   end_time                     time        64    125                                  
#   depth                        int         32    'd2                                  
#   parent sequence (name)       string      5     seq_h                                
#   parent sequence (full name)  string      37    uvm_test_top.env_h.act_h.seqr_h.seq_h
#   sequencer                    string      31    uvm_test_top.env_h.act_h.seqr_h      
# --------------------------------------------------------------------------------------
# --------------------------------------DRIVER----------------------------------
# UVM_INFO ApbScoreboard.sv(39) @ 135: uvm_test_top.env_h.scb_h [SB] EXPECTED TRANSACTION: size = 7 | TRANSFER = 1 | RW = 0 | WDATA = f4 | WPADDR = 7 | RPADDR = 0
# ----------------------------------------------INPUT MONITOR-------------------------------------------------------
# --------------------------------------------
# Name                 Type        Size  Value
# --------------------------------------------
# ip_mon_h             ApbSeqItem  -     @685 
#   apb_write_paddr    integral    9     'h7  
#   apb_read_paddr     integral    9     'h0  
#   apb_write_data     integral    8     'hf4 
#   transfer           integral    1     'h1  
#   READ_WRITE         integral    1     'h0  
#   apb_read_data_out  integral    8     'h0  
# --------------------------------------------
# WRITE ADDRESS = 000000111  READ ADDRESS =000000000 
# THE RESET IS 1
# ----------------------------------------------INPUT MONITOR-------------------------------------------------------
# WRITE ADDRESS == 000000111
# SLAVE 1
# WRITE_ADDRESS_VALIDITY: ASSERTION PASS
# TRANSFER_VALIDITY: ASSERTION PASS
# UVM_INFO ApbDriver.sv(63) @ 145: uvm_test_top.env_h.act_h.drv_h [DRIVER] [145] presetn = 1, transfer = 1, READ_WRITE = 0, apb_write_paddr = 001, apb_write_data = 30, apb_read_paddr = 0f8
# ---------------------------------DRIVER-------------------
# --------------------------------------------------------------------------------------
# Name                           Type        Size  Value                                
# --------------------------------------------------------------------------------------
# txn                            ApbSeqItem  -     @792                                 
#   apb_write_paddr              integral    9     'h1                                  
#   apb_read_paddr               integral    9     'hf8                                 
#   apb_write_data               integral    8     'h30                                 
#   transfer                     integral    1     'h1                                  
#   READ_WRITE                   integral    1     'h0                                  
#   apb_read_data_out            integral    8     'h0                                  
#   begin_time                   time        64    135                                  
#   depth                        int         32    'd2                                  
#   parent sequence (name)       string      5     seq_h                                
#   parent sequence (full name)  string      37    uvm_test_top.env_h.act_h.seqr_h.seq_h
#   sequencer                    string      31    uvm_test_top.env_h.act_h.seqr_h      
# --------------------------------------------------------------------------------------
# --------------------------------------DRIVER----------------------------------
# UVM_INFO ApbScoreboard.sv(39) @ 145: uvm_test_top.env_h.scb_h [SB] EXPECTED TRANSACTION: size = 8 | TRANSFER = 1 | RW = 0 | WDATA = f4 | WPADDR = 7 | RPADDR = 0
# ----------------------------------------------INPUT MONITOR-------------------------------------------------------
# --------------------------------------------
# Name                 Type        Size  Value
# --------------------------------------------
# ip_mon_h             ApbSeqItem  -     @685 
#   apb_write_paddr    integral    9     'h7  
#   apb_read_paddr     integral    9     'h0  
#   apb_write_data     integral    8     'hf4 
#   transfer           integral    1     'h1  
#   READ_WRITE         integral    1     'h0  
#   apb_read_data_out  integral    8     'h0  
# --------------------------------------------
# WRITE ADDRESS = 000000111  READ ADDRESS =000000000 
# THE RESET IS 1
# ----------------------------------------------INPUT MONITOR-------------------------------------------------------
# UVM_INFO ApbScoreboard.sv(46) @ 145: uvm_test_top.env_h.scb_h [SB] ACTUAL TRANSACTION: size = 1 | TRANSFER = 1 | RW = 0 | WPADDR = 7 | WDATA = f4 | RDATA = 0 | RPADDR = 0
# ----------------------------------------------OUTPUT MONITOR-------------------------------------------------------
# UVM_INFO ApbOpMonitor.sv(43) @ 145: uvm_test_top.env_h.pass_h.op_mon_h [OUTPUT MONITOR] [145] transfer =1 , READ_WRITE =0, apb_write_paddr =000000111 , apb_write_data =f4 , apb_read_paddr =x, apb_read_data=x
# ----------------------------------------------OUTPUT MONITOR-------------------------------------------------------
# FOR COMPARING : WRITE DATA =f4 READ DATA OUT =95
# -------------------------------------------------------------------WRITE--PASS---------------------------------------------------------------------
# UVM_INFO ApbScoreboard.sv(84) @ 145: uvm_test_top.env_h.scb_h [COMPARE] WRITE PASS | EXPECTED WDATA = f4  ACTUAL WDATA =f4 |EXPECTED  WRITE ADDR = 7 ACTUAL WRITE ADDR =7
# WRITE_ADDRESS_VALIDITY: ASSERTION PASS
# TRANSFER_VALIDITY: ASSERTION PASS
# UVM_INFO ApbDriver.sv(63) @ 155: uvm_test_top.env_h.act_h.drv_h [DRIVER] [155] presetn = 1, transfer = 1, READ_WRITE = 0, apb_write_paddr = 001, apb_write_data = 30, apb_read_paddr = 0f8
# ---------------------------------DRIVER-------------------
# --------------------------------------------------------------------------------------
# Name                           Type        Size  Value                                
# --------------------------------------------------------------------------------------
# txn                            ApbSeqItem  -     @792                                 
#   apb_write_paddr              integral    9     'h1                                  
#   apb_read_paddr               integral    9     'hf8                                 
#   apb_write_data               integral    8     'h30                                 
#   transfer                     integral    1     'h1                                  
#   READ_WRITE                   integral    1     'h0                                  
#   apb_read_data_out            integral    8     'h0                                  
#   begin_time                   time        64    145                                  
#   end_time                     time        64    145                                  
#   depth                        int         32    'd2                                  
#   parent sequence (name)       string      5     seq_h                                
#   parent sequence (full name)  string      37    uvm_test_top.env_h.act_h.seqr_h.seq_h
#   sequencer                    string      31    uvm_test_top.env_h.act_h.seqr_h      
# --------------------------------------------------------------------------------------
# --------------------------------------DRIVER----------------------------------
# UVM_INFO ApbScoreboard.sv(39) @ 155: uvm_test_top.env_h.scb_h [SB] EXPECTED TRANSACTION: size = 8 | TRANSFER = 1 | RW = 0 | WDATA = 30 | WPADDR = 1 | RPADDR = 0
# ----------------------------------------------INPUT MONITOR-------------------------------------------------------
# --------------------------------------------
# Name                 Type        Size  Value
# --------------------------------------------
# ip_mon_h             ApbSeqItem  -     @685 
#   apb_write_paddr    integral    9     'h1  
#   apb_read_paddr     integral    9     'h0  
#   apb_write_data     integral    8     'h30 
#   transfer           integral    1     'h1  
#   READ_WRITE         integral    1     'h0  
#   apb_read_data_out  integral    8     'h0  
# --------------------------------------------
# WRITE ADDRESS = 000000001  READ ADDRESS =000000000 
# THE RESET IS 1
# ----------------------------------------------INPUT MONITOR-------------------------------------------------------
# WRITE ADDRESS == 000000001
# SLAVE 1
# WRITE_ADDRESS_VALIDITY: ASSERTION PASS
# TRANSFER_VALIDITY: ASSERTION PASS
# UVM_INFO ApbDriver.sv(63) @ 165: uvm_test_top.env_h.act_h.drv_h [DRIVER] [165] presetn = 1, transfer = 1, READ_WRITE = 0, apb_write_paddr = 009, apb_write_data = 12, apb_read_paddr = 06e
# ---------------------------------DRIVER-------------------
# --------------------------------------------------------------------------------------
# Name                           Type        Size  Value                                
# --------------------------------------------------------------------------------------
# txn                            ApbSeqItem  -     @796                                 
#   apb_write_paddr              integral    9     'h9                                  
#   apb_read_paddr               integral    9     'h6e                                 
#   apb_write_data               integral    8     'h12                                 
#   transfer                     integral    1     'h1                                  
#   READ_WRITE                   integral    1     'h0                                  
#   apb_read_data_out            integral    8     'h0                                  
#   begin_time                   time        64    155                                  
#   depth                        int         32    'd2                                  
#   parent sequence (name)       string      5     seq_h                                
#   parent sequence (full name)  string      37    uvm_test_top.env_h.act_h.seqr_h.seq_h
#   sequencer                    string      31    uvm_test_top.env_h.act_h.seqr_h      
# --------------------------------------------------------------------------------------
# --------------------------------------DRIVER----------------------------------
# UVM_INFO ApbScoreboard.sv(39) @ 165: uvm_test_top.env_h.scb_h [SB] EXPECTED TRANSACTION: size = 9 | TRANSFER = 1 | RW = 0 | WDATA = 30 | WPADDR = 1 | RPADDR = 0
# ----------------------------------------------INPUT MONITOR-------------------------------------------------------
# --------------------------------------------
# Name                 Type        Size  Value
# --------------------------------------------
# ip_mon_h             ApbSeqItem  -     @685 
#   apb_write_paddr    integral    9     'h1  
#   apb_read_paddr     integral    9     'h0  
#   apb_write_data     integral    8     'h30 
#   transfer           integral    1     'h1  
#   READ_WRITE         integral    1     'h0  
#   apb_read_data_out  integral    8     'h0  
# --------------------------------------------
# WRITE ADDRESS = 000000001  READ ADDRESS =000000000 
# THE RESET IS 1
# ----------------------------------------------INPUT MONITOR-------------------------------------------------------
# UVM_INFO ApbScoreboard.sv(46) @ 165: uvm_test_top.env_h.scb_h [SB] ACTUAL TRANSACTION: size = 1 | TRANSFER = 1 | RW = 0 | WPADDR = 1 | WDATA = 30 | RDATA = 0 | RPADDR = 0
# ----------------------------------------------OUTPUT MONITOR-------------------------------------------------------
# UVM_INFO ApbOpMonitor.sv(43) @ 165: uvm_test_top.env_h.pass_h.op_mon_h [OUTPUT MONITOR] [165] transfer =1 , READ_WRITE =0, apb_write_paddr =000000001 , apb_write_data =30 , apb_read_paddr =x, apb_read_data=x
# ----------------------------------------------OUTPUT MONITOR-------------------------------------------------------
# FOR COMPARING : WRITE DATA =30 READ DATA OUT =95
# -------------------------------------------------------------------WRITE--PASS---------------------------------------------------------------------
# UVM_INFO ApbScoreboard.sv(84) @ 165: uvm_test_top.env_h.scb_h [COMPARE] WRITE PASS | EXPECTED WDATA = 30  ACTUAL WDATA =30 |EXPECTED  WRITE ADDR = 1 ACTUAL WRITE ADDR =1
# WRITE_ADDRESS_VALIDITY: ASSERTION PASS
# TRANSFER_VALIDITY: ASSERTION PASS
# UVM_INFO ApbDriver.sv(63) @ 175: uvm_test_top.env_h.act_h.drv_h [DRIVER] [175] presetn = 1, transfer = 1, READ_WRITE = 0, apb_write_paddr = 009, apb_write_data = 12, apb_read_paddr = 06e
# ---------------------------------DRIVER-------------------
# --------------------------------------------------------------------------------------
# Name                           Type        Size  Value                                
# --------------------------------------------------------------------------------------
# txn                            ApbSeqItem  -     @796                                 
#   apb_write_paddr              integral    9     'h9                                  
#   apb_read_paddr               integral    9     'h6e                                 
#   apb_write_data               integral    8     'h12                                 
#   transfer                     integral    1     'h1                                  
#   READ_WRITE                   integral    1     'h0                                  
#   apb_read_data_out            integral    8     'h0                                  
#   begin_time                   time        64    165                                  
#   end_time                     time        64    165                                  
#   depth                        int         32    'd2                                  
#   parent sequence (name)       string      5     seq_h                                
#   parent sequence (full name)  string      37    uvm_test_top.env_h.act_h.seqr_h.seq_h
#   sequencer                    string      31    uvm_test_top.env_h.act_h.seqr_h      
# --------------------------------------------------------------------------------------
# --------------------------------------DRIVER----------------------------------
# UVM_INFO ApbScoreboard.sv(39) @ 175: uvm_test_top.env_h.scb_h [SB] EXPECTED TRANSACTION: size = 9 | TRANSFER = 1 | RW = 0 | WDATA = 12 | WPADDR = 9 | RPADDR = 0
# ----------------------------------------------INPUT MONITOR-------------------------------------------------------
# --------------------------------------------
# Name                 Type        Size  Value
# --------------------------------------------
# ip_mon_h             ApbSeqItem  -     @685 
#   apb_write_paddr    integral    9     'h9  
#   apb_read_paddr     integral    9     'h0  
#   apb_write_data     integral    8     'h12 
#   transfer           integral    1     'h1  
#   READ_WRITE         integral    1     'h0  
#   apb_read_data_out  integral    8     'h0  
# --------------------------------------------
# WRITE ADDRESS = 000001001  READ ADDRESS =000000000 
# THE RESET IS 1
# ----------------------------------------------INPUT MONITOR-------------------------------------------------------
# WRITE ADDRESS == 000001001
# SLAVE 1
# WRITE_ADDRESS_VALIDITY: ASSERTION PASS
# TRANSFER_VALIDITY: ASSERTION PASS
# UVM_INFO ApbDriver.sv(63) @ 185: uvm_test_top.env_h.act_h.drv_h [DRIVER] [185] presetn = 1, transfer = 1, READ_WRITE = 0, apb_write_paddr = 006, apb_write_data = 33, apb_read_paddr = 13e
# ---------------------------------DRIVER-------------------
# --------------------------------------------------------------------------------------
# Name                           Type        Size  Value                                
# --------------------------------------------------------------------------------------
# txn                            ApbSeqItem  -     @800                                 
#   apb_write_paddr              integral    9     'h6                                  
#   apb_read_paddr               integral    9     'h13e                                
#   apb_write_data               integral    8     'h33                                 
#   transfer                     integral    1     'h1                                  
#   READ_WRITE                   integral    1     'h0                                  
#   apb_read_data_out            integral    8     'h0                                  
#   begin_time                   time        64    175                                  
#   depth                        int         32    'd2                                  
#   parent sequence (name)       string      5     seq_h                                
#   parent sequence (full name)  string      37    uvm_test_top.env_h.act_h.seqr_h.seq_h
#   sequencer                    string      31    uvm_test_top.env_h.act_h.seqr_h      
# --------------------------------------------------------------------------------------
# --------------------------------------DRIVER----------------------------------
# UVM_INFO ApbScoreboard.sv(39) @ 185: uvm_test_top.env_h.scb_h [SB] EXPECTED TRANSACTION: size = 10 | TRANSFER = 1 | RW = 0 | WDATA = 12 | WPADDR = 9 | RPADDR = 0
# ----------------------------------------------INPUT MONITOR-------------------------------------------------------
# --------------------------------------------
# Name                 Type        Size  Value
# --------------------------------------------
# ip_mon_h             ApbSeqItem  -     @685 
#   apb_write_paddr    integral    9     'h9  
#   apb_read_paddr     integral    9     'h0  
#   apb_write_data     integral    8     'h12 
#   transfer           integral    1     'h1  
#   READ_WRITE         integral    1     'h0  
#   apb_read_data_out  integral    8     'h0  
# --------------------------------------------
# WRITE ADDRESS = 000001001  READ ADDRESS =000000000 
# THE RESET IS 1
# ----------------------------------------------INPUT MONITOR-------------------------------------------------------
# UVM_INFO ApbScoreboard.sv(46) @ 185: uvm_test_top.env_h.scb_h [SB] ACTUAL TRANSACTION: size = 1 | TRANSFER = 1 | RW = 0 | WPADDR = 9 | WDATA = 12 | RDATA = 0 | RPADDR = 0
# ----------------------------------------------OUTPUT MONITOR-------------------------------------------------------
# UVM_INFO ApbOpMonitor.sv(43) @ 185: uvm_test_top.env_h.pass_h.op_mon_h [OUTPUT MONITOR] [185] transfer =1 , READ_WRITE =0, apb_write_paddr =000001001 , apb_write_data =12 , apb_read_paddr =x, apb_read_data=x
# ----------------------------------------------OUTPUT MONITOR-------------------------------------------------------
# FOR COMPARING : WRITE DATA =12 READ DATA OUT =95
# -------------------------------------------------------------------WRITE--PASS---------------------------------------------------------------------
# UVM_INFO ApbScoreboard.sv(84) @ 185: uvm_test_top.env_h.scb_h [COMPARE] WRITE PASS | EXPECTED WDATA = 12  ACTUAL WDATA =12 |EXPECTED  WRITE ADDR = 9 ACTUAL WRITE ADDR =9
# WRITE_ADDRESS_VALIDITY: ASSERTION PASS
# TRANSFER_VALIDITY: ASSERTION PASS
# UVM_INFO ApbDriver.sv(63) @ 195: uvm_test_top.env_h.act_h.drv_h [DRIVER] [195] presetn = 1, transfer = 1, READ_WRITE = 0, apb_write_paddr = 006, apb_write_data = 33, apb_read_paddr = 13e
# ---------------------------------DRIVER-------------------
# --------------------------------------------------------------------------------------
# Name                           Type        Size  Value                                
# --------------------------------------------------------------------------------------
# txn                            ApbSeqItem  -     @800                                 
#   apb_write_paddr              integral    9     'h6                                  
#   apb_read_paddr               integral    9     'h13e                                
#   apb_write_data               integral    8     'h33                                 
#   transfer                     integral    1     'h1                                  
#   READ_WRITE                   integral    1     'h0                                  
#   apb_read_data_out            integral    8     'h0                                  
#   begin_time                   time        64    185                                  
#   end_time                     time        64    185                                  
#   depth                        int         32    'd2                                  
#   parent sequence (name)       string      5     seq_h                                
#   parent sequence (full name)  string      37    uvm_test_top.env_h.act_h.seqr_h.seq_h
#   sequencer                    string      31    uvm_test_top.env_h.act_h.seqr_h      
# --------------------------------------------------------------------------------------
# --------------------------------------DRIVER----------------------------------
# UVM_INFO ApbScoreboard.sv(39) @ 195: uvm_test_top.env_h.scb_h [SB] EXPECTED TRANSACTION: size = 10 | TRANSFER = 1 | RW = 0 | WDATA = 33 | WPADDR = 6 | RPADDR = 0
# ----------------------------------------------INPUT MONITOR-------------------------------------------------------
# --------------------------------------------
# Name                 Type        Size  Value
# --------------------------------------------
# ip_mon_h             ApbSeqItem  -     @685 
#   apb_write_paddr    integral    9     'h6  
#   apb_read_paddr     integral    9     'h0  
#   apb_write_data     integral    8     'h33 
#   transfer           integral    1     'h1  
#   READ_WRITE         integral    1     'h0  
#   apb_read_data_out  integral    8     'h0  
# --------------------------------------------
# WRITE ADDRESS = 000000110  READ ADDRESS =000000000 
# THE RESET IS 1
# ----------------------------------------------INPUT MONITOR-------------------------------------------------------
# WRITE ADDRESS == 000000110
# SLAVE 1
# WRITE_ADDRESS_VALIDITY: ASSERTION PASS
# TRANSFER_VALIDITY: ASSERTION PASS
# UVM_INFO ApbDriver.sv(63) @ 205: uvm_test_top.env_h.act_h.drv_h [DRIVER] [205] presetn = 1, transfer = 1, READ_WRITE = 0, apb_write_paddr = 002, apb_write_data = 01, apb_read_paddr = 001
# ---------------------------------DRIVER-------------------
# --------------------------------------------------------------------------------------
# Name                           Type        Size  Value                                
# --------------------------------------------------------------------------------------
# txn                            ApbSeqItem  -     @804                                 
#   apb_write_paddr              integral    9     'h2                                  
#   apb_read_paddr               integral    9     'h1                                  
#   apb_write_data               integral    8     'h1                                  
#   transfer                     integral    1     'h1                                  
#   READ_WRITE                   integral    1     'h0                                  
#   apb_read_data_out            integral    8     'h0                                  
#   begin_time                   time        64    195                                  
#   depth                        int         32    'd2                                  
#   parent sequence (name)       string      5     seq_h                                
#   parent sequence (full name)  string      37    uvm_test_top.env_h.act_h.seqr_h.seq_h
#   sequencer                    string      31    uvm_test_top.env_h.act_h.seqr_h      
# --------------------------------------------------------------------------------------
# --------------------------------------DRIVER----------------------------------
# UVM_INFO ApbScoreboard.sv(39) @ 205: uvm_test_top.env_h.scb_h [SB] EXPECTED TRANSACTION: size = 11 | TRANSFER = 1 | RW = 0 | WDATA = 33 | WPADDR = 6 | RPADDR = 0
# ----------------------------------------------INPUT MONITOR-------------------------------------------------------
# --------------------------------------------
# Name                 Type        Size  Value
# --------------------------------------------
# ip_mon_h             ApbSeqItem  -     @685 
#   apb_write_paddr    integral    9     'h6  
#   apb_read_paddr     integral    9     'h0  
#   apb_write_data     integral    8     'h33 
#   transfer           integral    1     'h1  
#   READ_WRITE         integral    1     'h0  
#   apb_read_data_out  integral    8     'h0  
# --------------------------------------------
# WRITE ADDRESS = 000000110  READ ADDRESS =000000000 
# THE RESET IS 1
# ----------------------------------------------INPUT MONITOR-------------------------------------------------------
# UVM_INFO ApbScoreboard.sv(46) @ 205: uvm_test_top.env_h.scb_h [SB] ACTUAL TRANSACTION: size = 1 | TRANSFER = 1 | RW = 0 | WPADDR = 6 | WDATA = 33 | RDATA = 0 | RPADDR = 0
# ----------------------------------------------OUTPUT MONITOR-------------------------------------------------------
# UVM_INFO ApbOpMonitor.sv(43) @ 205: uvm_test_top.env_h.pass_h.op_mon_h [OUTPUT MONITOR] [205] transfer =1 , READ_WRITE =0, apb_write_paddr =000000110 , apb_write_data =33 , apb_read_paddr =x, apb_read_data=x
# ----------------------------------------------OUTPUT MONITOR-------------------------------------------------------
# FOR COMPARING : WRITE DATA =33 READ DATA OUT =95
# -------------------------------------------------------------------WRITE--PASS---------------------------------------------------------------------
# UVM_INFO ApbScoreboard.sv(84) @ 205: uvm_test_top.env_h.scb_h [COMPARE] WRITE PASS | EXPECTED WDATA = 33  ACTUAL WDATA =33 |EXPECTED  WRITE ADDR = 6 ACTUAL WRITE ADDR =6
# WRITE_ADDRESS_VALIDITY: ASSERTION PASS
# TRANSFER_VALIDITY: ASSERTION PASS
# UVM_INFO ApbDriver.sv(63) @ 215: uvm_test_top.env_h.act_h.drv_h [DRIVER] [215] presetn = 1, transfer = 1, READ_WRITE = 0, apb_write_paddr = 002, apb_write_data = 01, apb_read_paddr = 001
# ---------------------------------DRIVER-------------------
# --------------------------------------------------------------------------------------
# Name                           Type        Size  Value                                
# --------------------------------------------------------------------------------------
# txn                            ApbSeqItem  -     @804                                 
#   apb_write_paddr              integral    9     'h2                                  
#   apb_read_paddr               integral    9     'h1                                  
#   apb_write_data               integral    8     'h1                                  
#   transfer                     integral    1     'h1                                  
#   READ_WRITE                   integral    1     'h0                                  
#   apb_read_data_out            integral    8     'h0                                  
#   begin_time                   time        64    205                                  
#   end_time                     time        64    205                                  
#   depth                        int         32    'd2                                  
#   parent sequence (name)       string      5     seq_h                                
#   parent sequence (full name)  string      37    uvm_test_top.env_h.act_h.seqr_h.seq_h
#   sequencer                    string      31    uvm_test_top.env_h.act_h.seqr_h      
# --------------------------------------------------------------------------------------
# --------------------------------------DRIVER----------------------------------
# UVM_INFO ApbScoreboard.sv(39) @ 215: uvm_test_top.env_h.scb_h [SB] EXPECTED TRANSACTION: size = 11 | TRANSFER = 1 | RW = 0 | WDATA = 1 | WPADDR = 2 | RPADDR = 0
# ----------------------------------------------INPUT MONITOR-------------------------------------------------------
# --------------------------------------------
# Name                 Type        Size  Value
# --------------------------------------------
# ip_mon_h             ApbSeqItem  -     @685 
#   apb_write_paddr    integral    9     'h2  
#   apb_read_paddr     integral    9     'h0  
#   apb_write_data     integral    8     'h1  
#   transfer           integral    1     'h1  
#   READ_WRITE         integral    1     'h0  
#   apb_read_data_out  integral    8     'h0  
# --------------------------------------------
# WRITE ADDRESS = 000000010  READ ADDRESS =000000000 
# THE RESET IS 1
# ----------------------------------------------INPUT MONITOR-------------------------------------------------------
# WRITE ADDRESS == 000000010
# SLAVE 1
# UVM_INFO verilog_src/uvm-1.1d/src/base/uvm_objection.svh(1268) @ 215: reporter [TEST_DONE] 'run' phase is ready to proceed to the 'extract' phase
# UVM_INFO ApbCoverage.sv(90) @ 215: uvm_test_top.env_h.cov_h [COVERAGE] 
#  Input coverage is 78.571429 
#  output coverage is 100.000000
# UVM_INFO ApbScoreboard.sv(118) @ 215: uvm_test_top.env_h.scb_h [SCOREBOARD] -----------------------------
# UVM_INFO ApbScoreboard.sv(119) @ 215: uvm_test_top.env_h.scb_h [SCOREBOARD] PASSED: 9
# UVM_INFO ApbScoreboard.sv(120) @ 215: uvm_test_top.env_h.scb_h [SCOREBOARD] FAILED: 0
# UVM_INFO ApbScoreboard.sv(121) @ 215: uvm_test_top.env_h.scb_h [SCOREBOARD] -----------------------------
# 
# --- UVM Report Summary ---
# 
# ** Report counts by severity
# UVM_INFO :   83
# UVM_WARNING :    0
# UVM_ERROR :    0
# UVM_FATAL :    0
# ** Report counts by id
# [COMPARE]     9
# [COVERAGE]     1
# [DRIVER]    20
# [OUTPUT MONITOR]    11
# [Questa UVM]     2
# [RNTST]     1
# [SB]    33
# [SCOREBOARD]     4
# [TEST_DONE]     1
# [UVMTOP]     1
# ** Note: $finish    : /tools/mentor/questasim_10.6c/questasim/linux/../verilog_src/uvm-1.1d/src/base/uvm_root.svh(430)
#    Time: 215 ns  Iteration: 65  Instance: /top
# End time: 14:19:52 on May 26,2025, Elapsed time: 0:00:03
# Errors: 0, Warnings: 2
