# vsim -vopt work.top -voptargs="+acc=npr" -assertdebug -l simulation.log -coverage -c -do "coverage save -onexit -assert -directive -cvg -codeAll coverage.ucdb; run -all; coverage report -detail; exit" 
# Start time: 15:34:42 on May 19,2025
# ** Note: (vsim-3812) Design is being optimized...
# ** Note: (vopt-143) Recognized 1 FSM in module "master_bridge(fast)".
# ** Warning: ApbTop.sv(12): (vopt-2685) [TFMPC] - Too few port connections for 'dut'.  Expected 9, found 8.
# ** Warning: ApbTop.sv(12): (vopt-2718) [TFMPC] - Missing connection for port 'PSLVERR'.
# //  Questa Sim
# //  Version 10.6c linux Jul 25 2017
# //
# //  Copyright 1991-2017 Mentor Graphics Corporation
# //  All Rights Reserved.
# //
# //  QuestaSim and its associated documentation contain trade
# //  secrets and commercial or financial information that are the property of
# //  Mentor Graphics Corporation and are privileged, confidential,
# //  and exempt from disclosure under the Freedom of Information Act,
# //  5 U.S.C. Section 552. Furthermore, this information
# //  is prohibited from disclosure under the Trade Secrets Act,
# //  18 U.S.C. Section 1905.
# //
# Loading sv_std.std
# Loading mtiUvm.uvm_pkg
# Loading work.ApbTop_sv_unit(fast)
# Loading work.top(fast)
# Loading work.APB_Protocol(fast)
# Loading work.master_bridge(fast)
# Loading work.slave1(fast)
# Loading work.slave2(fast)
# Loading work.ApbInterface(fast)
# Loading mtiUvm.questa_uvm_pkg(fast)
# Loading work.ApbInterface(fast)
# Loading /tools/mentor/questasim_10.6c/questasim/uvm-1.1d/linux/uvm_dpi.so
# coverage save -onexit -assert -directive -cvg -codeAll coverage.ucdb
#  run -all
# ----------------------------------------------------------------
# UVM-1.1d
# (C) 2007-2013 Mentor Graphics Corporation
# (C) 2007-2013 Cadence Design Systems, Inc.
# (C) 2006-2013 Synopsys, Inc.
# (C) 2011-2013 Cypress Semiconductor Corp.
# ----------------------------------------------------------------
# 
#   ***********       IMPORTANT RELEASE NOTES         ************
# 
#   You are using a version of the UVM library that has been compiled
#   with `UVM_NO_DEPRECATED undefined.
#   See http://www.eda.org/svdb/view.php?id=3313 for more details.
# 
#   You are using a version of the UVM library that has been compiled
#   with `UVM_OBJECT_MUST_HAVE_CONSTRUCTOR undefined.
#   See http://www.eda.org/svdb/view.php?id=3770 for more details.
# 
#       (Specify +UVM_NO_RELNOTES to turn off this notice)
# 
# UVM_INFO verilog_src/questa_uvm_pkg-1.2/src/questa_uvm_pkg.sv(215) @ 0: reporter [Questa UVM] QUESTA_UVM-1.2.3
# UVM_INFO verilog_src/questa_uvm_pkg-1.2/src/questa_uvm_pkg.sv(217) @ 0: reporter [Questa UVM]  questa_uvm::init(+struct)
# UVM_INFO @ 0: reporter [RNTST] Running test ApbRegressionTest...
# UVM_INFO @ 0: reporter [UVMTOP] UVM testbench topology:
# ------------------------------------------------------------------
# Name                         Type                      Size  Value
# ------------------------------------------------------------------
# uvm_test_top                 ApbRegressionTest         -     @471 
#   env_h                      ApbEnvironment            -     @478 
#     act_h                    ApbActiveAgent            -     @485 
#       drv_h                  ApbDriver                 -     @537 
#         rsp_port             uvm_analysis_port         -     @552 
#         seq_item_port        uvm_seq_item_pull_port    -     @544 
#       ip_mon_h               ApbIpMonitor              -     @669 
#         item_collected_port  uvm_analysis_port         -     @676 
#       seqr_h                 ApbSequencer              -     @560 
#         rsp_export           uvm_analysis_export       -     @567 
#         seq_item_export      uvm_seq_item_pull_imp     -     @661 
#         arbitration_queue    array                     0     -    
#         lock_queue           array                     0     -    
#         num_last_reqs        integral                  32    'd1  
#         num_last_rsps        integral                  32    'd1  
#     cov_h                    ApbCoverage               -     @506 
#       analysis_imp           uvm_analysis_imp          -     @513 
#       ip_mon_imp             uvm_analysis_imp_ip_mon   -     @521 
#       op_mon_imp             uvm_analysis_imp_op_mon   -     @529 
#     pass_h                   ApbPassiveAgent           -     @492 
#       op_mon_h               ApbOpMonitor              -     @695 
#         item_collected_port  uvm_analysis_port         -     @702 
#     scb_h                    ApbScoreboard             -     @499 
#       in_mon_port            uvm_analysis_imp_in_mon   -     @715 
#       out_mon_port           uvm_analysis_imp_out_mon  -     @723 
# ------------------------------------------------------------------
# 
# UVM_INFO ApbScoreboard.sv(39) @ 5: uvm_test_top.env_h.scb_h [SB] EXPECTED TRANSACTION: size = 1 | TRANSFER = 0 | RW = 0 | WDATA = 0 | WPADDR = 0 | RPADDR = 0
# ----------------------------------------------INPUT MONITOR-------------------------------------------------------
# --------------------------------------------
# Name                 Type        Size  Value
# --------------------------------------------
# ip_mon_h             ApbSeqItem  -     @685 
#   apb_write_paddr    integral    9     'h0  
#   apb_read_paddr     integral    9     'h0  
#   apb_write_data     integral    8     'h0  
#   transfer           integral    1     'h0  
#   READ_WRITE         integral    1     'h0  
#   apb_read_data_out  integral    8     'h0  
# --------------------------------------------
# WRITE ADDRESS = 000000000  READ ADDRESS =000000000 
# THE RESET IS 0
# ----------------------------------------------INPUT MONITOR-------------------------------------------------------
# UVM_INFO ApbScoreboard.sv(46) @ 5: uvm_test_top.env_h.scb_h [SB] ACTUAL TRANSACTION: size = 1 | TRANSFER = 0 | RW = 0 | WPADDR = 0 | WDATA = 0 | RDATA = 0 | RPADDR = 0
# ----------------------------------------------OUTPUT MONITOR-------------------------------------------------------
# UVM_INFO ApbOpMonitor.sv(43) @ 5: uvm_test_top.env_h.pass_h.op_mon_h [OUTPUT MONITOR] [5] transfer =x , READ_WRITE =x, apb_write_paddr =xxxxxxxxx , apb_write_data =xx , apb_read_paddr =x, apb_read_data=x
# ----------------------------------------------OUTPUT MONITOR-------------------------------------------------------
# UVM_INFO ApbScoreboard.sv(46) @ 15: uvm_test_top.env_h.scb_h [SB] ACTUAL TRANSACTION: size = 1 | TRANSFER = 0 | RW = 0 | WPADDR = 0 | WDATA = 0 | RDATA = 0 | RPADDR = 0
# ----------------------------------------------OUTPUT MONITOR-------------------------------------------------------
# UVM_INFO ApbOpMonitor.sv(43) @ 15: uvm_test_top.env_h.pass_h.op_mon_h [OUTPUT MONITOR] [15] transfer =x , READ_WRITE =x, apb_write_paddr =xxxxxxxxx , apb_write_data =xx , apb_read_paddr =x, apb_read_data=x
# ----------------------------------------------OUTPUT MONITOR-------------------------------------------------------
# UVM_INFO ApbScoreboard.sv(39) @ 15: uvm_test_top.env_h.scb_h [SB] EXPECTED TRANSACTION: size = 1 | TRANSFER = 0 | RW = 0 | WDATA = 0 | WPADDR = 0 | RPADDR = 0
# ----------------------------------------------INPUT MONITOR-------------------------------------------------------
# --------------------------------------------
# Name                 Type        Size  Value
# --------------------------------------------
# ip_mon_h             ApbSeqItem  -     @685 
#   apb_write_paddr    integral    9     'h0  
#   apb_read_paddr     integral    9     'h0  
#   apb_write_data     integral    8     'h0  
#   transfer           integral    1     'h0  
#   READ_WRITE         integral    1     'h0  
#   apb_read_data_out  integral    8     'h0  
# --------------------------------------------
# WRITE ADDRESS = 000000000  READ ADDRESS =000000000 
# THE RESET IS 0
# ----------------------------------------------INPUT MONITOR-------------------------------------------------------
# UVM_INFO ApbDriver.sv(63) @ 25: uvm_test_top.env_h.act_h.drv_h [DRIVER] [25] presetn = 1, transfer = 1, READ_WRITE = 0, apb_write_paddr = 009, apb_write_data = 95, apb_read_paddr = 003
# ---------------------------------DRIVER-------------------
# --------------------------------------------------------------------------------------------
# Name                           Type        Size  Value                                      
# --------------------------------------------------------------------------------------------
# txn                            ApbSeqItem  -     @767                                       
#   apb_write_paddr              integral    9     'h9                                        
#   apb_read_paddr               integral    9     'h3                                        
#   apb_write_data               integral    8     'h95                                       
#   transfer                     integral    1     'h1                                        
#   READ_WRITE                   integral    1     'h0                                        
#   apb_read_data_out            integral    8     'h0                                        
#   begin_time                   time        64    15                                         
#   depth                        int         32    'd2                                        
#   parent sequence (name)       string      11    writeseq1_h                                
#   parent sequence (full name)  string      43    uvm_test_top.env_h.act_h.seqr_h.writeseq1_h
#   sequencer                    string      31    uvm_test_top.env_h.act_h.seqr_h            
# --------------------------------------------------------------------------------------------
# --------------------------------------DRIVER----------------------------------
# UVM_INFO ApbScoreboard.sv(39) @ 25: uvm_test_top.env_h.scb_h [SB] EXPECTED TRANSACTION: size = 1 | TRANSFER = 0 | RW = 0 | WDATA = 0 | WPADDR = 0 | RPADDR = 0
# ----------------------------------------------INPUT MONITOR-------------------------------------------------------
# --------------------------------------------
# Name                 Type        Size  Value
# --------------------------------------------
# ip_mon_h             ApbSeqItem  -     @685 
#   apb_write_paddr    integral    9     'h0  
#   apb_read_paddr     integral    9     'h0  
#   apb_write_data     integral    8     'h0  
#   transfer           integral    1     'h0  
#   READ_WRITE         integral    1     'h0  
#   apb_read_data_out  integral    8     'h0  
# --------------------------------------------
# WRITE ADDRESS = 000000000  READ ADDRESS =000000000 
# THE RESET IS 1
# ----------------------------------------------INPUT MONITOR-------------------------------------------------------
# UVM_INFO ApbScoreboard.sv(46) @ 25: uvm_test_top.env_h.scb_h [SB] ACTUAL TRANSACTION: size = 1 | TRANSFER = 0 | RW = 0 | WPADDR = 0 | WDATA = 0 | RDATA = 0 | RPADDR = 0
# ----------------------------------------------OUTPUT MONITOR-------------------------------------------------------
# UVM_INFO ApbOpMonitor.sv(43) @ 25: uvm_test_top.env_h.pass_h.op_mon_h [OUTPUT MONITOR] [25] transfer =x , READ_WRITE =x, apb_write_paddr =xxxxxxxxx , apb_write_data =xx , apb_read_paddr =x, apb_read_data=x
# ----------------------------------------------OUTPUT MONITOR-------------------------------------------------------
# UVM_INFO ApbDriver.sv(63) @ 35: uvm_test_top.env_h.act_h.drv_h [DRIVER] [35] presetn = 1, transfer = 1, READ_WRITE = 0, apb_write_paddr = 009, apb_write_data = 95, apb_read_paddr = 003
# ---------------------------------DRIVER-------------------
# --------------------------------------------------------------------------------------------
# Name                           Type        Size  Value                                      
# --------------------------------------------------------------------------------------------
# txn                            ApbSeqItem  -     @767                                       
#   apb_write_paddr              integral    9     'h9                                        
#   apb_read_paddr               integral    9     'h3                                        
#   apb_write_data               integral    8     'h95                                       
#   transfer                     integral    1     'h1                                        
#   READ_WRITE                   integral    1     'h0                                        
#   apb_read_data_out            integral    8     'h0                                        
#   begin_time                   time        64    25                                         
#   end_time                     time        64    25                                         
#   depth                        int         32    'd2                                        
#   parent sequence (name)       string      11    writeseq1_h                                
#   parent sequence (full name)  string      43    uvm_test_top.env_h.act_h.seqr_h.writeseq1_h
#   sequencer                    string      31    uvm_test_top.env_h.act_h.seqr_h            
# --------------------------------------------------------------------------------------------
# --------------------------------------DRIVER----------------------------------
# UVM_INFO ApbScoreboard.sv(46) @ 35: uvm_test_top.env_h.scb_h [SB] ACTUAL TRANSACTION: size = 1 | TRANSFER = 1 | RW = 0 | WPADDR = 9 | WDATA = 95 | RDATA = 0 | RPADDR = 0
# ----------------------------------------------OUTPUT MONITOR-------------------------------------------------------
# UVM_INFO ApbOpMonitor.sv(43) @ 35: uvm_test_top.env_h.pass_h.op_mon_h [OUTPUT MONITOR] [35] transfer =1 , READ_WRITE =0, apb_write_paddr =000001001 , apb_write_data =95 , apb_read_paddr =x, apb_read_data=x
# ----------------------------------------------OUTPUT MONITOR-------------------------------------------------------
# UVM_INFO ApbScoreboard.sv(39) @ 35: uvm_test_top.env_h.scb_h [SB] EXPECTED TRANSACTION: size = 1 | TRANSFER = 1 | RW = 0 | WDATA = 95 | WPADDR = 9 | RPADDR = 0
# ----------------------------------------------INPUT MONITOR-------------------------------------------------------
# --------------------------------------------
# Name                 Type        Size  Value
# --------------------------------------------
# ip_mon_h             ApbSeqItem  -     @685 
#   apb_write_paddr    integral    9     'h9  
#   apb_read_paddr     integral    9     'h0  
#   apb_write_data     integral    8     'h95 
#   transfer           integral    1     'h1  
#   READ_WRITE         integral    1     'h0  
#   apb_read_data_out  integral    8     'h0  
# --------------------------------------------
# WRITE ADDRESS = 000001001  READ ADDRESS =000000000 
# THE RESET IS 1
# ----------------------------------------------INPUT MONITOR-------------------------------------------------------
# WRITE ADDRESS == 000001001
# SLAVE 1
# FOR COMPARING : WRITE DATA =95 READ DATA OUT =xx
# ---------------------------------------------------------------------PASS---------------------------------------------------------------------
# UVM_INFO ApbScoreboard.sv(84) @ 35: uvm_test_top.env_h.scb_h [COMPARE] WRITE PASS | EXPECTED WDATA = 95  ACTUAL WDATA =95 |EXPECTED  WRITE ADDR = 9 ACTUAL WRITE ADDR =9
# WRITE_ADDRESS_VALIDITY: ASSERTION PASS
# TRANSFER_VALIDITY: ASSERTION PASS
# UVM_INFO ApbDriver.sv(63) @ 45: uvm_test_top.env_h.act_h.drv_h [DRIVER] [45] presetn = 1, transfer = 1, READ_WRITE = 0, apb_write_paddr = 000, apb_write_data = 32, apb_read_paddr = 1c7
# ---------------------------------DRIVER-------------------
# --------------------------------------------------------------------------------------------
# Name                           Type        Size  Value                                      
# --------------------------------------------------------------------------------------------
# txn                            ApbSeqItem  -     @796                                       
#   apb_write_paddr              integral    9     'h0                                        
#   apb_read_paddr               integral    9     'h1c7                                      
#   apb_write_data               integral    8     'h32                                       
#   transfer                     integral    1     'h1                                        
#   READ_WRITE                   integral    1     'h0                                        
#   apb_read_data_out            integral    8     'h0                                        
#   begin_time                   time        64    35                                         
#   depth                        int         32    'd2                                        
#   parent sequence (name)       string      11    writeseq1_h                                
#   parent sequence (full name)  string      43    uvm_test_top.env_h.act_h.seqr_h.writeseq1_h
#   sequencer                    string      31    uvm_test_top.env_h.act_h.seqr_h            
# --------------------------------------------------------------------------------------------
# --------------------------------------DRIVER----------------------------------
# UVM_INFO ApbScoreboard.sv(39) @ 45: uvm_test_top.env_h.scb_h [SB] EXPECTED TRANSACTION: size = 1 | TRANSFER = 1 | RW = 0 | WDATA = 95 | WPADDR = 9 | RPADDR = 0
# ----------------------------------------------INPUT MONITOR-------------------------------------------------------
# --------------------------------------------
# Name                 Type        Size  Value
# --------------------------------------------
# ip_mon_h             ApbSeqItem  -     @685 
#   apb_write_paddr    integral    9     'h9  
#   apb_read_paddr     integral    9     'h0  
#   apb_write_data     integral    8     'h95 
#   transfer           integral    1     'h1  
#   READ_WRITE         integral    1     'h0  
#   apb_read_data_out  integral    8     'h0  
# --------------------------------------------
# WRITE ADDRESS = 000001001  READ ADDRESS =000000000 
# THE RESET IS 1
# ----------------------------------------------INPUT MONITOR-------------------------------------------------------
# UVM_INFO ApbScoreboard.sv(46) @ 45: uvm_test_top.env_h.scb_h [SB] ACTUAL TRANSACTION: size = 1 | TRANSFER = 1 | RW = 0 | WPADDR = 9 | WDATA = 95 | RDATA = 0 | RPADDR = 0
# ----------------------------------------------OUTPUT MONITOR-------------------------------------------------------
# UVM_INFO ApbOpMonitor.sv(43) @ 45: uvm_test_top.env_h.pass_h.op_mon_h [OUTPUT MONITOR] [45] transfer =1 , READ_WRITE =0, apb_write_paddr =000001001 , apb_write_data =95 , apb_read_paddr =x, apb_read_data=x
# ----------------------------------------------OUTPUT MONITOR-------------------------------------------------------
# FOR COMPARING : WRITE DATA =95 READ DATA OUT =xx
# ---------------------------------------------------------------------PASS---------------------------------------------------------------------
# UVM_INFO ApbScoreboard.sv(84) @ 45: uvm_test_top.env_h.scb_h [COMPARE] WRITE PASS | EXPECTED WDATA = 95  ACTUAL WDATA =95 |EXPECTED  WRITE ADDR = 9 ACTUAL WRITE ADDR =9
# WRITE_ADDRESS_VALIDITY: ASSERTION PASS
# TRANSFER_VALIDITY: ASSERTION PASS
# WRITE_ADDRESS_STABILITY: ASSERTION PASS
# UVM_INFO ApbDriver.sv(63) @ 55: uvm_test_top.env_h.act_h.drv_h [DRIVER] [55] presetn = 1, transfer = 1, READ_WRITE = 0, apb_write_paddr = 000, apb_write_data = 32, apb_read_paddr = 1c7
# ---------------------------------DRIVER-------------------
# --------------------------------------------------------------------------------------------
# Name                           Type        Size  Value                                      
# --------------------------------------------------------------------------------------------
# txn                            ApbSeqItem  -     @796                                       
#   apb_write_paddr              integral    9     'h0                                        
#   apb_read_paddr               integral    9     'h1c7                                      
#   apb_write_data               integral    8     'h32                                       
#   transfer                     integral    1     'h1                                        
#   READ_WRITE                   integral    1     'h0                                        
#   apb_read_data_out            integral    8     'h0                                        
#   begin_time                   time        64    45                                         
#   end_time                     time        64    45                                         
#   depth                        int         32    'd2                                        
#   parent sequence (name)       string      11    writeseq1_h                                
#   parent sequence (full name)  string      43    uvm_test_top.env_h.act_h.seqr_h.writeseq1_h
#   sequencer                    string      31    uvm_test_top.env_h.act_h.seqr_h            
# --------------------------------------------------------------------------------------------
# --------------------------------------DRIVER----------------------------------
# UVM_INFO ApbScoreboard.sv(46) @ 55: uvm_test_top.env_h.scb_h [SB] ACTUAL TRANSACTION: size = 1 | TRANSFER = 1 | RW = 0 | WPADDR = 0 | WDATA = 32 | RDATA = 0 | RPADDR = 0
# ----------------------------------------------OUTPUT MONITOR-------------------------------------------------------
# UVM_INFO ApbOpMonitor.sv(43) @ 55: uvm_test_top.env_h.pass_h.op_mon_h [OUTPUT MONITOR] [55] transfer =1 , READ_WRITE =0, apb_write_paddr =000000000 , apb_write_data =32 , apb_read_paddr =x, apb_read_data=x
# ----------------------------------------------OUTPUT MONITOR-------------------------------------------------------
# UVM_INFO ApbScoreboard.sv(39) @ 55: uvm_test_top.env_h.scb_h [SB] EXPECTED TRANSACTION: size = 1 | TRANSFER = 1 | RW = 0 | WDATA = 32 | WPADDR = 0 | RPADDR = 0
# ----------------------------------------------INPUT MONITOR-------------------------------------------------------
# --------------------------------------------
# Name                 Type        Size  Value
# --------------------------------------------
# ip_mon_h             ApbSeqItem  -     @685 
#   apb_write_paddr    integral    9     'h0  
#   apb_read_paddr     integral    9     'h0  
#   apb_write_data     integral    8     'h32 
#   transfer           integral    1     'h1  
#   READ_WRITE         integral    1     'h0  
#   apb_read_data_out  integral    8     'h0  
# --------------------------------------------
# WRITE ADDRESS = 000000000  READ ADDRESS =000000000 
# THE RESET IS 1
# ----------------------------------------------INPUT MONITOR-------------------------------------------------------
# WRITE ADDRESS == 000000000
# SLAVE 1
# FOR COMPARING : WRITE DATA =32 READ DATA OUT =32
# ---------------------------------------------------------------------PASS---------------------------------------------------------------------
# UVM_INFO ApbScoreboard.sv(84) @ 55: uvm_test_top.env_h.scb_h [COMPARE] WRITE PASS | EXPECTED WDATA = 32  ACTUAL WDATA =32 |EXPECTED  WRITE ADDR = 0 ACTUAL WRITE ADDR =0
# WRITE_ADDRESS_VALIDITY: ASSERTION PASS
# TRANSFER_VALIDITY: ASSERTION PASS
# ** Error: WRITE_ADDRESS_STABILITY: ASSERTION FAIL
#    Time: 55 ns Started: 45 ns  Scope: top.intf.write_address_stability File: ApbInterface.sv Line: 70 Expr: $stable(apb_write_paddr)
# UVM_INFO ApbDriver.sv(63) @ 65: uvm_test_top.env_h.act_h.drv_h [DRIVER] [65] presetn = 1, transfer = 1, READ_WRITE = 0, apb_write_paddr = 007, apb_write_data = b4, apb_read_paddr = 036
# ---------------------------------DRIVER-------------------
# --------------------------------------------------------------------------------------------
# Name                           Type        Size  Value                                      
# --------------------------------------------------------------------------------------------
# txn                            ApbSeqItem  -     @800                                       
#   apb_write_paddr              integral    9     'h7                                        
#   apb_read_paddr               integral    9     'h36                                       
#   apb_write_data               integral    8     'hb4                                       
#   transfer                     integral    1     'h1                                        
#   READ_WRITE                   integral    1     'h0                                        
#   apb_read_data_out            integral    8     'h0                                        
#   begin_time                   time        64    55                                         
#   depth                        int         32    'd2                                        
#   parent sequence (name)       string      11    writeseq1_h                                
#   parent sequence (full name)  string      43    uvm_test_top.env_h.act_h.seqr_h.writeseq1_h
#   sequencer                    string      31    uvm_test_top.env_h.act_h.seqr_h            
# --------------------------------------------------------------------------------------------
# --------------------------------------DRIVER----------------------------------
# UVM_INFO ApbScoreboard.sv(39) @ 65: uvm_test_top.env_h.scb_h [SB] EXPECTED TRANSACTION: size = 1 | TRANSFER = 1 | RW = 0 | WDATA = 32 | WPADDR = 0 | RPADDR = 0
# ----------------------------------------------INPUT MONITOR-------------------------------------------------------
# --------------------------------------------
# Name                 Type        Size  Value
# --------------------------------------------
# ip_mon_h             ApbSeqItem  -     @685 
#   apb_write_paddr    integral    9     'h0  
#   apb_read_paddr     integral    9     'h0  
#   apb_write_data     integral    8     'h32 
#   transfer           integral    1     'h1  
#   READ_WRITE         integral    1     'h0  
#   apb_read_data_out  integral    8     'h0  
# --------------------------------------------
# WRITE ADDRESS = 000000000  READ ADDRESS =000000000 
# THE RESET IS 1
# ----------------------------------------------INPUT MONITOR-------------------------------------------------------
# UVM_INFO ApbScoreboard.sv(46) @ 65: uvm_test_top.env_h.scb_h [SB] ACTUAL TRANSACTION: size = 1 | TRANSFER = 1 | RW = 0 | WPADDR = 0 | WDATA = 32 | RDATA = 0 | RPADDR = 0
# ----------------------------------------------OUTPUT MONITOR-------------------------------------------------------
# UVM_INFO ApbOpMonitor.sv(43) @ 65: uvm_test_top.env_h.pass_h.op_mon_h [OUTPUT MONITOR] [65] transfer =1 , READ_WRITE =0, apb_write_paddr =000000000 , apb_write_data =32 , apb_read_paddr =x, apb_read_data=x
# ----------------------------------------------OUTPUT MONITOR-------------------------------------------------------
# FOR COMPARING : WRITE DATA =32 READ DATA OUT =32
# ---------------------------------------------------------------------PASS---------------------------------------------------------------------
# UVM_INFO ApbScoreboard.sv(84) @ 65: uvm_test_top.env_h.scb_h [COMPARE] WRITE PASS | EXPECTED WDATA = 32  ACTUAL WDATA =32 |EXPECTED  WRITE ADDR = 0 ACTUAL WRITE ADDR =0
# WRITE_ADDRESS_VALIDITY: ASSERTION PASS
# TRANSFER_VALIDITY: ASSERTION PASS
# WRITE_ADDRESS_STABILITY: ASSERTION PASS
# UVM_INFO ApbDriver.sv(63) @ 75: uvm_test_top.env_h.act_h.drv_h [DRIVER] [75] presetn = 1, transfer = 1, READ_WRITE = 0, apb_write_paddr = 007, apb_write_data = b4, apb_read_paddr = 036
# ---------------------------------DRIVER-------------------
# --------------------------------------------------------------------------------------------
# Name                           Type        Size  Value                                      
# --------------------------------------------------------------------------------------------
# txn                            ApbSeqItem  -     @800                                       
#   apb_write_paddr              integral    9     'h7                                        
#   apb_read_paddr               integral    9     'h36                                       
#   apb_write_data               integral    8     'hb4                                       
#   transfer                     integral    1     'h1                                        
#   READ_WRITE                   integral    1     'h0                                        
#   apb_read_data_out            integral    8     'h0                                        
#   begin_time                   time        64    65                                         
#   end_time                     time        64    65                                         
#   depth                        int         32    'd2                                        
#   parent sequence (name)       string      11    writeseq1_h                                
#   parent sequence (full name)  string      43    uvm_test_top.env_h.act_h.seqr_h.writeseq1_h
#   sequencer                    string      31    uvm_test_top.env_h.act_h.seqr_h            
# --------------------------------------------------------------------------------------------
# --------------------------------------DRIVER----------------------------------
# UVM_INFO ApbScoreboard.sv(46) @ 75: uvm_test_top.env_h.scb_h [SB] ACTUAL TRANSACTION: size = 1 | TRANSFER = 1 | RW = 0 | WPADDR = 7 | WDATA = b4 | RDATA = 0 | RPADDR = 0
# ----------------------------------------------OUTPUT MONITOR-------------------------------------------------------
# UVM_INFO ApbOpMonitor.sv(43) @ 75: uvm_test_top.env_h.pass_h.op_mon_h [OUTPUT MONITOR] [75] transfer =1 , READ_WRITE =0, apb_write_paddr =000000111 , apb_write_data =b4 , apb_read_paddr =x, apb_read_data=x
# ----------------------------------------------OUTPUT MONITOR-------------------------------------------------------
# UVM_INFO ApbScoreboard.sv(39) @ 75: uvm_test_top.env_h.scb_h [SB] EXPECTED TRANSACTION: size = 1 | TRANSFER = 1 | RW = 0 | WDATA = b4 | WPADDR = 7 | RPADDR = 0
# ----------------------------------------------INPUT MONITOR-------------------------------------------------------
# --------------------------------------------
# Name                 Type        Size  Value
# --------------------------------------------
# ip_mon_h             ApbSeqItem  -     @685 
#   apb_write_paddr    integral    9     'h7  
#   apb_read_paddr     integral    9     'h0  
#   apb_write_data     integral    8     'hb4 
#   transfer           integral    1     'h1  
#   READ_WRITE         integral    1     'h0  
#   apb_read_data_out  integral    8     'h0  
# --------------------------------------------
# WRITE ADDRESS = 000000111  READ ADDRESS =000000000 
# THE RESET IS 1
# ----------------------------------------------INPUT MONITOR-------------------------------------------------------
# WRITE ADDRESS == 000000111
# SLAVE 1
# FOR COMPARING : WRITE DATA =b4 READ DATA OUT =32
# ---------------------------------------------------------------------PASS---------------------------------------------------------------------
# UVM_INFO ApbScoreboard.sv(84) @ 75: uvm_test_top.env_h.scb_h [COMPARE] WRITE PASS | EXPECTED WDATA = b4  ACTUAL WDATA =b4 |EXPECTED  WRITE ADDR = 7 ACTUAL WRITE ADDR =7
# WRITE_ADDRESS_VALIDITY: ASSERTION PASS
# TRANSFER_VALIDITY: ASSERTION PASS
# ** Error: WRITE_ADDRESS_STABILITY: ASSERTION FAIL
#    Time: 75 ns Started: 65 ns  Scope: top.intf.write_address_stability File: ApbInterface.sv Line: 70 Expr: $stable(apb_write_paddr)
# UVM_INFO ApbDriver.sv(63) @ 85: uvm_test_top.env_h.act_h.drv_h [DRIVER] [85] presetn = 1, transfer = 1, READ_WRITE = 0, apb_write_paddr = 005, apb_write_data = 38, apb_read_paddr = 1ec
# ---------------------------------DRIVER-------------------
# --------------------------------------------------------------------------------------------
# Name                           Type        Size  Value                                      
# --------------------------------------------------------------------------------------------
# txn                            ApbSeqItem  -     @804                                       
#   apb_write_paddr              integral    9     'h5                                        
#   apb_read_paddr               integral    9     'h1ec                                      
#   apb_write_data               integral    8     'h38                                       
#   transfer                     integral    1     'h1                                        
#   READ_WRITE                   integral    1     'h0                                        
#   apb_read_data_out            integral    8     'h0                                        
#   begin_time                   time        64    75                                         
#   depth                        int         32    'd2                                        
#   parent sequence (name)       string      11    writeseq1_h                                
#   parent sequence (full name)  string      43    uvm_test_top.env_h.act_h.seqr_h.writeseq1_h
#   sequencer                    string      31    uvm_test_top.env_h.act_h.seqr_h            
# --------------------------------------------------------------------------------------------
# --------------------------------------DRIVER----------------------------------
# UVM_INFO ApbScoreboard.sv(39) @ 85: uvm_test_top.env_h.scb_h [SB] EXPECTED TRANSACTION: size = 1 | TRANSFER = 1 | RW = 0 | WDATA = b4 | WPADDR = 7 | RPADDR = 0
# ----------------------------------------------INPUT MONITOR-------------------------------------------------------
# --------------------------------------------
# Name                 Type        Size  Value
# --------------------------------------------
# ip_mon_h             ApbSeqItem  -     @685 
#   apb_write_paddr    integral    9     'h7  
#   apb_read_paddr     integral    9     'h0  
#   apb_write_data     integral    8     'hb4 
#   transfer           integral    1     'h1  
#   READ_WRITE         integral    1     'h0  
#   apb_read_data_out  integral    8     'h0  
# --------------------------------------------
# WRITE ADDRESS = 000000111  READ ADDRESS =000000000 
# THE RESET IS 1
# ----------------------------------------------INPUT MONITOR-------------------------------------------------------
# UVM_INFO ApbScoreboard.sv(46) @ 85: uvm_test_top.env_h.scb_h [SB] ACTUAL TRANSACTION: size = 1 | TRANSFER = 1 | RW = 0 | WPADDR = 7 | WDATA = b4 | RDATA = 0 | RPADDR = 0
# ----------------------------------------------OUTPUT MONITOR-------------------------------------------------------
# UVM_INFO ApbOpMonitor.sv(43) @ 85: uvm_test_top.env_h.pass_h.op_mon_h [OUTPUT MONITOR] [85] transfer =1 , READ_WRITE =0, apb_write_paddr =000000111 , apb_write_data =b4 , apb_read_paddr =x, apb_read_data=x
# ----------------------------------------------OUTPUT MONITOR-------------------------------------------------------
# FOR COMPARING : WRITE DATA =b4 READ DATA OUT =32
# ---------------------------------------------------------------------PASS---------------------------------------------------------------------
# UVM_INFO ApbScoreboard.sv(84) @ 85: uvm_test_top.env_h.scb_h [COMPARE] WRITE PASS | EXPECTED WDATA = b4  ACTUAL WDATA =b4 |EXPECTED  WRITE ADDR = 7 ACTUAL WRITE ADDR =7
# WRITE_ADDRESS_VALIDITY: ASSERTION PASS
# TRANSFER_VALIDITY: ASSERTION PASS
# WRITE_ADDRESS_STABILITY: ASSERTION PASS
# UVM_INFO ApbDriver.sv(63) @ 95: uvm_test_top.env_h.act_h.drv_h [DRIVER] [95] presetn = 1, transfer = 1, READ_WRITE = 0, apb_write_paddr = 005, apb_write_data = 38, apb_read_paddr = 1ec
# ---------------------------------DRIVER-------------------
# --------------------------------------------------------------------------------------------
# Name                           Type        Size  Value                                      
# --------------------------------------------------------------------------------------------
# txn                            ApbSeqItem  -     @804                                       
#   apb_write_paddr              integral    9     'h5                                        
#   apb_read_paddr               integral    9     'h1ec                                      
#   apb_write_data               integral    8     'h38                                       
#   transfer                     integral    1     'h1                                        
#   READ_WRITE                   integral    1     'h0                                        
#   apb_read_data_out            integral    8     'h0                                        
#   begin_time                   time        64    85                                         
#   end_time                     time        64    85                                         
#   depth                        int         32    'd2                                        
#   parent sequence (name)       string      11    writeseq1_h                                
#   parent sequence (full name)  string      43    uvm_test_top.env_h.act_h.seqr_h.writeseq1_h
#   sequencer                    string      31    uvm_test_top.env_h.act_h.seqr_h            
# --------------------------------------------------------------------------------------------
# --------------------------------------DRIVER----------------------------------
# UVM_INFO ApbScoreboard.sv(46) @ 95: uvm_test_top.env_h.scb_h [SB] ACTUAL TRANSACTION: size = 1 | TRANSFER = 1 | RW = 0 | WPADDR = 5 | WDATA = 38 | RDATA = 0 | RPADDR = 0
# ----------------------------------------------OUTPUT MONITOR-------------------------------------------------------
# UVM_INFO ApbOpMonitor.sv(43) @ 95: uvm_test_top.env_h.pass_h.op_mon_h [OUTPUT MONITOR] [95] transfer =1 , READ_WRITE =0, apb_write_paddr =000000101 , apb_write_data =38 , apb_read_paddr =x, apb_read_data=x
# ----------------------------------------------OUTPUT MONITOR-------------------------------------------------------
# UVM_INFO ApbScoreboard.sv(39) @ 95: uvm_test_top.env_h.scb_h [SB] EXPECTED TRANSACTION: size = 1 | TRANSFER = 1 | RW = 0 | WDATA = 38 | WPADDR = 5 | RPADDR = 0
# ----------------------------------------------INPUT MONITOR-------------------------------------------------------
# --------------------------------------------
# Name                 Type        Size  Value
# --------------------------------------------
# ip_mon_h             ApbSeqItem  -     @685 
#   apb_write_paddr    integral    9     'h5  
#   apb_read_paddr     integral    9     'h0  
#   apb_write_data     integral    8     'h38 
#   transfer           integral    1     'h1  
#   READ_WRITE         integral    1     'h0  
#   apb_read_data_out  integral    8     'h0  
# --------------------------------------------
# WRITE ADDRESS = 000000101  READ ADDRESS =000000000 
# THE RESET IS 1
# ----------------------------------------------INPUT MONITOR-------------------------------------------------------
# WRITE ADDRESS == 000000101
# SLAVE 1
# FOR COMPARING : WRITE DATA =38 READ DATA OUT =32
# ---------------------------------------------------------------------PASS---------------------------------------------------------------------
# UVM_INFO ApbScoreboard.sv(84) @ 95: uvm_test_top.env_h.scb_h [COMPARE] WRITE PASS | EXPECTED WDATA = 38  ACTUAL WDATA =38 |EXPECTED  WRITE ADDR = 5 ACTUAL WRITE ADDR =5
# WRITE_ADDRESS_VALIDITY: ASSERTION PASS
# TRANSFER_VALIDITY: ASSERTION PASS
# ** Error: WRITE_ADDRESS_STABILITY: ASSERTION FAIL
#    Time: 95 ns Started: 85 ns  Scope: top.intf.write_address_stability File: ApbInterface.sv Line: 70 Expr: $stable(apb_write_paddr)
# UVM_INFO ApbDriver.sv(63) @ 105: uvm_test_top.env_h.act_h.drv_h [DRIVER] [105] presetn = 1, transfer = 1, READ_WRITE = 0, apb_write_paddr = 00a, apb_write_data = d3, apb_read_paddr = 09f
# ---------------------------------DRIVER-------------------
# --------------------------------------------------------------------------------------------
# Name                           Type        Size  Value                                      
# --------------------------------------------------------------------------------------------
# txn                            ApbSeqItem  -     @808                                       
#   apb_write_paddr              integral    9     'ha                                        
#   apb_read_paddr               integral    9     'h9f                                       
#   apb_write_data               integral    8     'hd3                                       
#   transfer                     integral    1     'h1                                        
#   READ_WRITE                   integral    1     'h0                                        
#   apb_read_data_out            integral    8     'h0                                        
#   begin_time                   time        64    95                                         
#   depth                        int         32    'd2                                        
#   parent sequence (name)       string      11    writeseq1_h                                
#   parent sequence (full name)  string      43    uvm_test_top.env_h.act_h.seqr_h.writeseq1_h
#   sequencer                    string      31    uvm_test_top.env_h.act_h.seqr_h            
# --------------------------------------------------------------------------------------------
# --------------------------------------DRIVER----------------------------------
# UVM_INFO ApbScoreboard.sv(39) @ 105: uvm_test_top.env_h.scb_h [SB] EXPECTED TRANSACTION: size = 1 | TRANSFER = 1 | RW = 0 | WDATA = 38 | WPADDR = 5 | RPADDR = 0
# ----------------------------------------------INPUT MONITOR-------------------------------------------------------
# --------------------------------------------
# Name                 Type        Size  Value
# --------------------------------------------
# ip_mon_h             ApbSeqItem  -     @685 
#   apb_write_paddr    integral    9     'h5  
#   apb_read_paddr     integral    9     'h0  
#   apb_write_data     integral    8     'h38 
#   transfer           integral    1     'h1  
#   READ_WRITE         integral    1     'h0  
#   apb_read_data_out  integral    8     'h0  
# --------------------------------------------
# WRITE ADDRESS = 000000101  READ ADDRESS =000000000 
# THE RESET IS 1
# ----------------------------------------------INPUT MONITOR-------------------------------------------------------
# UVM_INFO ApbScoreboard.sv(46) @ 105: uvm_test_top.env_h.scb_h [SB] ACTUAL TRANSACTION: size = 1 | TRANSFER = 1 | RW = 0 | WPADDR = 5 | WDATA = 38 | RDATA = 0 | RPADDR = 0
# ----------------------------------------------OUTPUT MONITOR-------------------------------------------------------
# UVM_INFO ApbOpMonitor.sv(43) @ 105: uvm_test_top.env_h.pass_h.op_mon_h [OUTPUT MONITOR] [105] transfer =1 , READ_WRITE =0, apb_write_paddr =000000101 , apb_write_data =38 , apb_read_paddr =x, apb_read_data=x
# ----------------------------------------------OUTPUT MONITOR-------------------------------------------------------
# FOR COMPARING : WRITE DATA =38 READ DATA OUT =32
# ---------------------------------------------------------------------PASS---------------------------------------------------------------------
# UVM_INFO ApbScoreboard.sv(84) @ 105: uvm_test_top.env_h.scb_h [COMPARE] WRITE PASS | EXPECTED WDATA = 38  ACTUAL WDATA =38 |EXPECTED  WRITE ADDR = 5 ACTUAL WRITE ADDR =5
# WRITE_ADDRESS_VALIDITY: ASSERTION PASS
# TRANSFER_VALIDITY: ASSERTION PASS
# WRITE_ADDRESS_STABILITY: ASSERTION PASS
# UVM_INFO ApbDriver.sv(63) @ 115: uvm_test_top.env_h.act_h.drv_h [DRIVER] [115] presetn = 1, transfer = 1, READ_WRITE = 0, apb_write_paddr = 00a, apb_write_data = d3, apb_read_paddr = 09f
# ---------------------------------DRIVER-------------------
# --------------------------------------------------------------------------------------------
# Name                           Type        Size  Value                                      
# --------------------------------------------------------------------------------------------
# txn                            ApbSeqItem  -     @808                                       
#   apb_write_paddr              integral    9     'ha                                        
#   apb_read_paddr               integral    9     'h9f                                       
#   apb_write_data               integral    8     'hd3                                       
#   transfer                     integral    1     'h1                                        
#   READ_WRITE                   integral    1     'h0                                        
#   apb_read_data_out            integral    8     'h0                                        
#   begin_time                   time        64    105                                        
#   end_time                     time        64    105                                        
#   depth                        int         32    'd2                                        
#   parent sequence (name)       string      11    writeseq1_h                                
#   parent sequence (full name)  string      43    uvm_test_top.env_h.act_h.seqr_h.writeseq1_h
#   sequencer                    string      31    uvm_test_top.env_h.act_h.seqr_h            
# --------------------------------------------------------------------------------------------
# --------------------------------------DRIVER----------------------------------
# UVM_INFO ApbScoreboard.sv(46) @ 115: uvm_test_top.env_h.scb_h [SB] ACTUAL TRANSACTION: size = 1 | TRANSFER = 1 | RW = 0 | WPADDR = a | WDATA = d3 | RDATA = 0 | RPADDR = 0
# ----------------------------------------------OUTPUT MONITOR-------------------------------------------------------
# UVM_INFO ApbOpMonitor.sv(43) @ 115: uvm_test_top.env_h.pass_h.op_mon_h [OUTPUT MONITOR] [115] transfer =1 , READ_WRITE =0, apb_write_paddr =000001010 , apb_write_data =d3 , apb_read_paddr =x, apb_read_data=x
# ----------------------------------------------OUTPUT MONITOR-------------------------------------------------------
# UVM_INFO ApbScoreboard.sv(39) @ 115: uvm_test_top.env_h.scb_h [SB] EXPECTED TRANSACTION: size = 1 | TRANSFER = 1 | RW = 0 | WDATA = d3 | WPADDR = a | RPADDR = 0
# ----------------------------------------------INPUT MONITOR-------------------------------------------------------
# --------------------------------------------
# Name                 Type        Size  Value
# --------------------------------------------
# ip_mon_h             ApbSeqItem  -     @685 
#   apb_write_paddr    integral    9     'ha  
#   apb_read_paddr     integral    9     'h0  
#   apb_write_data     integral    8     'hd3 
#   transfer           integral    1     'h1  
#   READ_WRITE         integral    1     'h0  
#   apb_read_data_out  integral    8     'h0  
# --------------------------------------------
# WRITE ADDRESS = 000001010  READ ADDRESS =000000000 
# THE RESET IS 1
# ----------------------------------------------INPUT MONITOR-------------------------------------------------------
# WRITE ADDRESS == 000001010
# SLAVE 1
# FOR COMPARING : WRITE DATA =d3 READ DATA OUT =32
# ---------------------------------------------------------------------PASS---------------------------------------------------------------------
# UVM_INFO ApbScoreboard.sv(84) @ 115: uvm_test_top.env_h.scb_h [COMPARE] WRITE PASS | EXPECTED WDATA = d3  ACTUAL WDATA =d3 |EXPECTED  WRITE ADDR = a ACTUAL WRITE ADDR =a
# WRITE_ADDRESS_VALIDITY: ASSERTION PASS
# TRANSFER_VALIDITY: ASSERTION PASS
# ** Error: WRITE_ADDRESS_STABILITY: ASSERTION FAIL
#    Time: 115 ns Started: 105 ns  Scope: top.intf.write_address_stability File: ApbInterface.sv Line: 70 Expr: $stable(apb_write_paddr)
# UVM_INFO ApbDriver.sv(63) @ 125: uvm_test_top.env_h.act_h.drv_h [DRIVER] [125] presetn = 1, transfer = 1, READ_WRITE = 0, apb_write_paddr = 008, apb_write_data = b0, apb_read_paddr = 1e1
# ---------------------------------DRIVER-------------------
# --------------------------------------------------------------------------------------------
# Name                           Type        Size  Value                                      
# --------------------------------------------------------------------------------------------
# txn                            ApbSeqItem  -     @812                                       
#   apb_write_paddr              integral    9     'h8                                        
#   apb_read_paddr               integral    9     'h1e1                                      
#   apb_write_data               integral    8     'hb0                                       
#   transfer                     integral    1     'h1                                        
#   READ_WRITE                   integral    1     'h0                                        
#   apb_read_data_out            integral    8     'h0                                        
#   begin_time                   time        64    115                                        
#   depth                        int         32    'd2                                        
#   parent sequence (name)       string      11    writeseq1_h                                
#   parent sequence (full name)  string      43    uvm_test_top.env_h.act_h.seqr_h.writeseq1_h
#   sequencer                    string      31    uvm_test_top.env_h.act_h.seqr_h            
# --------------------------------------------------------------------------------------------
# --------------------------------------DRIVER----------------------------------
# UVM_INFO ApbScoreboard.sv(39) @ 125: uvm_test_top.env_h.scb_h [SB] EXPECTED TRANSACTION: size = 1 | TRANSFER = 1 | RW = 0 | WDATA = d3 | WPADDR = a | RPADDR = 0
# ----------------------------------------------INPUT MONITOR-------------------------------------------------------
# --------------------------------------------
# Name                 Type        Size  Value
# --------------------------------------------
# ip_mon_h             ApbSeqItem  -     @685 
#   apb_write_paddr    integral    9     'ha  
#   apb_read_paddr     integral    9     'h0  
#   apb_write_data     integral    8     'hd3 
#   transfer           integral    1     'h1  
#   READ_WRITE         integral    1     'h0  
#   apb_read_data_out  integral    8     'h0  
# --------------------------------------------
# WRITE ADDRESS = 000001010  READ ADDRESS =000000000 
# THE RESET IS 1
# ----------------------------------------------INPUT MONITOR-------------------------------------------------------
# UVM_INFO ApbScoreboard.sv(46) @ 125: uvm_test_top.env_h.scb_h [SB] ACTUAL TRANSACTION: size = 1 | TRANSFER = 1 | RW = 0 | WPADDR = a | WDATA = d3 | RDATA = 0 | RPADDR = 0
# ----------------------------------------------OUTPUT MONITOR-------------------------------------------------------
# UVM_INFO ApbOpMonitor.sv(43) @ 125: uvm_test_top.env_h.pass_h.op_mon_h [OUTPUT MONITOR] [125] transfer =1 , READ_WRITE =0, apb_write_paddr =000001010 , apb_write_data =d3 , apb_read_paddr =x, apb_read_data=x
# ----------------------------------------------OUTPUT MONITOR-------------------------------------------------------
# FOR COMPARING : WRITE DATA =d3 READ DATA OUT =32
# ---------------------------------------------------------------------PASS---------------------------------------------------------------------
# UVM_INFO ApbScoreboard.sv(84) @ 125: uvm_test_top.env_h.scb_h [COMPARE] WRITE PASS | EXPECTED WDATA = d3  ACTUAL WDATA =d3 |EXPECTED  WRITE ADDR = a ACTUAL WRITE ADDR =a
# WRITE_ADDRESS_VALIDITY: ASSERTION PASS
# TRANSFER_VALIDITY: ASSERTION PASS
# WRITE_ADDRESS_STABILITY: ASSERTION PASS
# UVM_INFO ApbDriver.sv(63) @ 135: uvm_test_top.env_h.act_h.drv_h [DRIVER] [135] presetn = 1, transfer = 1, READ_WRITE = 0, apb_write_paddr = 008, apb_write_data = b0, apb_read_paddr = 1e1
# ---------------------------------DRIVER-------------------
# --------------------------------------------------------------------------------------------
# Name                           Type        Size  Value                                      
# --------------------------------------------------------------------------------------------
# txn                            ApbSeqItem  -     @812                                       
#   apb_write_paddr              integral    9     'h8                                        
#   apb_read_paddr               integral    9     'h1e1                                      
#   apb_write_data               integral    8     'hb0                                       
#   transfer                     integral    1     'h1                                        
#   READ_WRITE                   integral    1     'h0                                        
#   apb_read_data_out            integral    8     'h0                                        
#   begin_time                   time        64    125                                        
#   end_time                     time        64    125                                        
#   depth                        int         32    'd2                                        
#   parent sequence (name)       string      11    writeseq1_h                                
#   parent sequence (full name)  string      43    uvm_test_top.env_h.act_h.seqr_h.writeseq1_h
#   sequencer                    string      31    uvm_test_top.env_h.act_h.seqr_h            
# --------------------------------------------------------------------------------------------
# --------------------------------------DRIVER----------------------------------
# UVM_INFO ApbScoreboard.sv(46) @ 135: uvm_test_top.env_h.scb_h [SB] ACTUAL TRANSACTION: size = 1 | TRANSFER = 1 | RW = 0 | WPADDR = 8 | WDATA = b0 | RDATA = 0 | RPADDR = 0
# ----------------------------------------------OUTPUT MONITOR-------------------------------------------------------
# UVM_INFO ApbOpMonitor.sv(43) @ 135: uvm_test_top.env_h.pass_h.op_mon_h [OUTPUT MONITOR] [135] transfer =1 , READ_WRITE =0, apb_write_paddr =000001000 , apb_write_data =b0 , apb_read_paddr =x, apb_read_data=x
# ----------------------------------------------OUTPUT MONITOR-------------------------------------------------------
# UVM_INFO ApbScoreboard.sv(39) @ 135: uvm_test_top.env_h.scb_h [SB] EXPECTED TRANSACTION: size = 1 | TRANSFER = 1 | RW = 0 | WDATA = b0 | WPADDR = 8 | RPADDR = 0
# ----------------------------------------------INPUT MONITOR-------------------------------------------------------
# --------------------------------------------
# Name                 Type        Size  Value
# --------------------------------------------
# ip_mon_h             ApbSeqItem  -     @685 
#   apb_write_paddr    integral    9     'h8  
#   apb_read_paddr     integral    9     'h0  
#   apb_write_data     integral    8     'hb0 
#   transfer           integral    1     'h1  
#   READ_WRITE         integral    1     'h0  
#   apb_read_data_out  integral    8     'h0  
# --------------------------------------------
# WRITE ADDRESS = 000001000  READ ADDRESS =000000000 
# THE RESET IS 1
# ----------------------------------------------INPUT MONITOR-------------------------------------------------------
# WRITE ADDRESS == 000001000
# SLAVE 1
# FOR COMPARING : WRITE DATA =b0 READ DATA OUT =32
# ---------------------------------------------------------------------PASS---------------------------------------------------------------------
# UVM_INFO ApbScoreboard.sv(84) @ 135: uvm_test_top.env_h.scb_h [COMPARE] WRITE PASS | EXPECTED WDATA = b0  ACTUAL WDATA =b0 |EXPECTED  WRITE ADDR = 8 ACTUAL WRITE ADDR =8
# WRITE_ADDRESS_VALIDITY: ASSERTION PASS
# TRANSFER_VALIDITY: ASSERTION PASS
# ** Error: WRITE_ADDRESS_STABILITY: ASSERTION FAIL
#    Time: 135 ns Started: 125 ns  Scope: top.intf.write_address_stability File: ApbInterface.sv Line: 70 Expr: $stable(apb_write_paddr)
# UVM_INFO ApbDriver.sv(63) @ 145: uvm_test_top.env_h.act_h.drv_h [DRIVER] [145] presetn = 1, transfer = 1, READ_WRITE = 0, apb_write_paddr = 009, apb_write_data = 12, apb_read_paddr = 124
# ---------------------------------DRIVER-------------------
# --------------------------------------------------------------------------------------------
# Name                           Type        Size  Value                                      
# --------------------------------------------------------------------------------------------
# txn                            ApbSeqItem  -     @816                                       
#   apb_write_paddr              integral    9     'h9                                        
#   apb_read_paddr               integral    9     'h124                                      
#   apb_write_data               integral    8     'h12                                       
#   transfer                     integral    1     'h1                                        
#   READ_WRITE                   integral    1     'h0                                        
#   apb_read_data_out            integral    8     'h0                                        
#   begin_time                   time        64    135                                        
#   depth                        int         32    'd2                                        
#   parent sequence (name)       string      11    writeseq1_h                                
#   parent sequence (full name)  string      43    uvm_test_top.env_h.act_h.seqr_h.writeseq1_h
#   sequencer                    string      31    uvm_test_top.env_h.act_h.seqr_h            
# --------------------------------------------------------------------------------------------
# --------------------------------------DRIVER----------------------------------
# UVM_INFO ApbScoreboard.sv(39) @ 145: uvm_test_top.env_h.scb_h [SB] EXPECTED TRANSACTION: size = 1 | TRANSFER = 1 | RW = 0 | WDATA = b0 | WPADDR = 8 | RPADDR = 0
# ----------------------------------------------INPUT MONITOR-------------------------------------------------------
# --------------------------------------------
# Name                 Type        Size  Value
# --------------------------------------------
# ip_mon_h             ApbSeqItem  -     @685 
#   apb_write_paddr    integral    9     'h8  
#   apb_read_paddr     integral    9     'h0  
#   apb_write_data     integral    8     'hb0 
#   transfer           integral    1     'h1  
#   READ_WRITE         integral    1     'h0  
#   apb_read_data_out  integral    8     'h0  
# --------------------------------------------
# WRITE ADDRESS = 000001000  READ ADDRESS =000000000 
# THE RESET IS 1
# ----------------------------------------------INPUT MONITOR-------------------------------------------------------
# UVM_INFO ApbScoreboard.sv(46) @ 145: uvm_test_top.env_h.scb_h [SB] ACTUAL TRANSACTION: size = 1 | TRANSFER = 1 | RW = 0 | WPADDR = 8 | WDATA = b0 | RDATA = 0 | RPADDR = 0
# ----------------------------------------------OUTPUT MONITOR-------------------------------------------------------
# UVM_INFO ApbOpMonitor.sv(43) @ 145: uvm_test_top.env_h.pass_h.op_mon_h [OUTPUT MONITOR] [145] transfer =1 , READ_WRITE =0, apb_write_paddr =000001000 , apb_write_data =b0 , apb_read_paddr =x, apb_read_data=x
# ----------------------------------------------OUTPUT MONITOR-------------------------------------------------------
# FOR COMPARING : WRITE DATA =b0 READ DATA OUT =32
# ---------------------------------------------------------------------PASS---------------------------------------------------------------------
# UVM_INFO ApbScoreboard.sv(84) @ 145: uvm_test_top.env_h.scb_h [COMPARE] WRITE PASS | EXPECTED WDATA = b0  ACTUAL WDATA =b0 |EXPECTED  WRITE ADDR = 8 ACTUAL WRITE ADDR =8
# WRITE_ADDRESS_VALIDITY: ASSERTION PASS
# TRANSFER_VALIDITY: ASSERTION PASS
# WRITE_ADDRESS_STABILITY: ASSERTION PASS
# UVM_INFO ApbDriver.sv(63) @ 155: uvm_test_top.env_h.act_h.drv_h [DRIVER] [155] presetn = 1, transfer = 1, READ_WRITE = 0, apb_write_paddr = 009, apb_write_data = 12, apb_read_paddr = 124
# ---------------------------------DRIVER-------------------
# --------------------------------------------------------------------------------------------
# Name                           Type        Size  Value                                      
# --------------------------------------------------------------------------------------------
# txn                            ApbSeqItem  -     @816                                       
#   apb_write_paddr              integral    9     'h9                                        
#   apb_read_paddr               integral    9     'h124                                      
#   apb_write_data               integral    8     'h12                                       
#   transfer                     integral    1     'h1                                        
#   READ_WRITE                   integral    1     'h0                                        
#   apb_read_data_out            integral    8     'h0                                        
#   begin_time                   time        64    145                                        
#   end_time                     time        64    145                                        
#   depth                        int         32    'd2                                        
#   parent sequence (name)       string      11    writeseq1_h                                
#   parent sequence (full name)  string      43    uvm_test_top.env_h.act_h.seqr_h.writeseq1_h
#   sequencer                    string      31    uvm_test_top.env_h.act_h.seqr_h            
# --------------------------------------------------------------------------------------------
# --------------------------------------DRIVER----------------------------------
# UVM_INFO ApbScoreboard.sv(46) @ 155: uvm_test_top.env_h.scb_h [SB] ACTUAL TRANSACTION: size = 1 | TRANSFER = 1 | RW = 0 | WPADDR = 9 | WDATA = 12 | RDATA = 0 | RPADDR = 0
# ----------------------------------------------OUTPUT MONITOR-------------------------------------------------------
# UVM_INFO ApbOpMonitor.sv(43) @ 155: uvm_test_top.env_h.pass_h.op_mon_h [OUTPUT MONITOR] [155] transfer =1 , READ_WRITE =0, apb_write_paddr =000001001 , apb_write_data =12 , apb_read_paddr =x, apb_read_data=x
# ----------------------------------------------OUTPUT MONITOR-------------------------------------------------------
# UVM_INFO ApbScoreboard.sv(39) @ 155: uvm_test_top.env_h.scb_h [SB] EXPECTED TRANSACTION: size = 1 | TRANSFER = 1 | RW = 0 | WDATA = 12 | WPADDR = 9 | RPADDR = 0
# ----------------------------------------------INPUT MONITOR-------------------------------------------------------
# --------------------------------------------
# Name                 Type        Size  Value
# --------------------------------------------
# ip_mon_h             ApbSeqItem  -     @685 
#   apb_write_paddr    integral    9     'h9  
#   apb_read_paddr     integral    9     'h0  
#   apb_write_data     integral    8     'h12 
#   transfer           integral    1     'h1  
#   READ_WRITE         integral    1     'h0  
#   apb_read_data_out  integral    8     'h0  
# --------------------------------------------
# WRITE ADDRESS = 000001001  READ ADDRESS =000000000 
# THE RESET IS 1
# ----------------------------------------------INPUT MONITOR-------------------------------------------------------
# WRITE ADDRESS == 000001001
# SLAVE 1
# FOR COMPARING : WRITE DATA =12 READ DATA OUT =32
# ---------------------------------------------------------------------PASS---------------------------------------------------------------------
# UVM_INFO ApbScoreboard.sv(84) @ 155: uvm_test_top.env_h.scb_h [COMPARE] WRITE PASS | EXPECTED WDATA = 12  ACTUAL WDATA =12 |EXPECTED  WRITE ADDR = 9 ACTUAL WRITE ADDR =9
# WRITE_ADDRESS_VALIDITY: ASSERTION PASS
# TRANSFER_VALIDITY: ASSERTION PASS
# ** Error: WRITE_ADDRESS_STABILITY: ASSERTION FAIL
#    Time: 155 ns Started: 145 ns  Scope: top.intf.write_address_stability File: ApbInterface.sv Line: 70 Expr: $stable(apb_write_paddr)
# UVM_INFO ApbDriver.sv(63) @ 165: uvm_test_top.env_h.act_h.drv_h [DRIVER] [165] presetn = 1, transfer = 1, READ_WRITE = 0, apb_write_paddr = 002, apb_write_data = 6d, apb_read_paddr = 10c
# ---------------------------------DRIVER-------------------
# --------------------------------------------------------------------------------------------
# Name                           Type        Size  Value                                      
# --------------------------------------------------------------------------------------------
# txn                            ApbSeqItem  -     @820                                       
#   apb_write_paddr              integral    9     'h2                                        
#   apb_read_paddr               integral    9     'h10c                                      
#   apb_write_data               integral    8     'h6d                                       
#   transfer                     integral    1     'h1                                        
#   READ_WRITE                   integral    1     'h0                                        
#   apb_read_data_out            integral    8     'h0                                        
#   begin_time                   time        64    155                                        
#   depth                        int         32    'd2                                        
#   parent sequence (name)       string      11    writeseq1_h                                
#   parent sequence (full name)  string      43    uvm_test_top.env_h.act_h.seqr_h.writeseq1_h
#   sequencer                    string      31    uvm_test_top.env_h.act_h.seqr_h            
# --------------------------------------------------------------------------------------------
# --------------------------------------DRIVER----------------------------------
# UVM_INFO ApbScoreboard.sv(39) @ 165: uvm_test_top.env_h.scb_h [SB] EXPECTED TRANSACTION: size = 1 | TRANSFER = 1 | RW = 0 | WDATA = 12 | WPADDR = 9 | RPADDR = 0
# ----------------------------------------------INPUT MONITOR-------------------------------------------------------
# --------------------------------------------
# Name                 Type        Size  Value
# --------------------------------------------
# ip_mon_h             ApbSeqItem  -     @685 
#   apb_write_paddr    integral    9     'h9  
#   apb_read_paddr     integral    9     'h0  
#   apb_write_data     integral    8     'h12 
#   transfer           integral    1     'h1  
#   READ_WRITE         integral    1     'h0  
#   apb_read_data_out  integral    8     'h0  
# --------------------------------------------
# WRITE ADDRESS = 000001001  READ ADDRESS =000000000 
# THE RESET IS 1
# ----------------------------------------------INPUT MONITOR-------------------------------------------------------
# UVM_INFO ApbScoreboard.sv(46) @ 165: uvm_test_top.env_h.scb_h [SB] ACTUAL TRANSACTION: size = 1 | TRANSFER = 1 | RW = 0 | WPADDR = 9 | WDATA = 12 | RDATA = 0 | RPADDR = 0
# ----------------------------------------------OUTPUT MONITOR-------------------------------------------------------
# UVM_INFO ApbOpMonitor.sv(43) @ 165: uvm_test_top.env_h.pass_h.op_mon_h [OUTPUT MONITOR] [165] transfer =1 , READ_WRITE =0, apb_write_paddr =000001001 , apb_write_data =12 , apb_read_paddr =x, apb_read_data=x
# ----------------------------------------------OUTPUT MONITOR-------------------------------------------------------
# FOR COMPARING : WRITE DATA =12 READ DATA OUT =32
# ---------------------------------------------------------------------PASS---------------------------------------------------------------------
# UVM_INFO ApbScoreboard.sv(84) @ 165: uvm_test_top.env_h.scb_h [COMPARE] WRITE PASS | EXPECTED WDATA = 12  ACTUAL WDATA =12 |EXPECTED  WRITE ADDR = 9 ACTUAL WRITE ADDR =9
# WRITE_ADDRESS_VALIDITY: ASSERTION PASS
# TRANSFER_VALIDITY: ASSERTION PASS
# WRITE_ADDRESS_STABILITY: ASSERTION PASS
# UVM_INFO ApbDriver.sv(63) @ 175: uvm_test_top.env_h.act_h.drv_h [DRIVER] [175] presetn = 1, transfer = 1, READ_WRITE = 0, apb_write_paddr = 002, apb_write_data = 6d, apb_read_paddr = 10c
# ---------------------------------DRIVER-------------------
# --------------------------------------------------------------------------------------------
# Name                           Type        Size  Value                                      
# --------------------------------------------------------------------------------------------
# txn                            ApbSeqItem  -     @820                                       
#   apb_write_paddr              integral    9     'h2                                        
#   apb_read_paddr               integral    9     'h10c                                      
#   apb_write_data               integral    8     'h6d                                       
#   transfer                     integral    1     'h1                                        
#   READ_WRITE                   integral    1     'h0                                        
#   apb_read_data_out            integral    8     'h0                                        
#   begin_time                   time        64    165                                        
#   end_time                     time        64    165                                        
#   depth                        int         32    'd2                                        
#   parent sequence (name)       string      11    writeseq1_h                                
#   parent sequence (full name)  string      43    uvm_test_top.env_h.act_h.seqr_h.writeseq1_h
#   sequencer                    string      31    uvm_test_top.env_h.act_h.seqr_h            
# --------------------------------------------------------------------------------------------
# --------------------------------------DRIVER----------------------------------
# UVM_INFO ApbScoreboard.sv(46) @ 175: uvm_test_top.env_h.scb_h [SB] ACTUAL TRANSACTION: size = 1 | TRANSFER = 1 | RW = 0 | WPADDR = 2 | WDATA = 6d | RDATA = 0 | RPADDR = 0
# ----------------------------------------------OUTPUT MONITOR-------------------------------------------------------
# UVM_INFO ApbOpMonitor.sv(43) @ 175: uvm_test_top.env_h.pass_h.op_mon_h [OUTPUT MONITOR] [175] transfer =1 , READ_WRITE =0, apb_write_paddr =000000010 , apb_write_data =6d , apb_read_paddr =x, apb_read_data=x
# ----------------------------------------------OUTPUT MONITOR-------------------------------------------------------
# UVM_INFO ApbScoreboard.sv(39) @ 175: uvm_test_top.env_h.scb_h [SB] EXPECTED TRANSACTION: size = 1 | TRANSFER = 1 | RW = 0 | WDATA = 6d | WPADDR = 2 | RPADDR = 0
# ----------------------------------------------INPUT MONITOR-------------------------------------------------------
# --------------------------------------------
# Name                 Type        Size  Value
# --------------------------------------------
# ip_mon_h             ApbSeqItem  -     @685 
#   apb_write_paddr    integral    9     'h2  
#   apb_read_paddr     integral    9     'h0  
#   apb_write_data     integral    8     'h6d 
#   transfer           integral    1     'h1  
#   READ_WRITE         integral    1     'h0  
#   apb_read_data_out  integral    8     'h0  
# --------------------------------------------
# WRITE ADDRESS = 000000010  READ ADDRESS =000000000 
# THE RESET IS 1
# ----------------------------------------------INPUT MONITOR-------------------------------------------------------
# WRITE ADDRESS == 000000010
# SLAVE 1
# FOR COMPARING : WRITE DATA =6d READ DATA OUT =32
# ---------------------------------------------------------------------PASS---------------------------------------------------------------------
# UVM_INFO ApbScoreboard.sv(84) @ 175: uvm_test_top.env_h.scb_h [COMPARE] WRITE PASS | EXPECTED WDATA = 6d  ACTUAL WDATA =6d |EXPECTED  WRITE ADDR = 2 ACTUAL WRITE ADDR =2
# WRITE_ADDRESS_VALIDITY: ASSERTION PASS
# TRANSFER_VALIDITY: ASSERTION PASS
# ** Error: WRITE_ADDRESS_STABILITY: ASSERTION FAIL
#    Time: 175 ns Started: 165 ns  Scope: top.intf.write_address_stability File: ApbInterface.sv Line: 70 Expr: $stable(apb_write_paddr)
# UVM_INFO ApbDriver.sv(63) @ 185: uvm_test_top.env_h.act_h.drv_h [DRIVER] [185] presetn = 1, transfer = 1, READ_WRITE = 0, apb_write_paddr = 001, apb_write_data = 1a, apb_read_paddr = 1c6
# ---------------------------------DRIVER-------------------
# --------------------------------------------------------------------------------------------
# Name                           Type        Size  Value                                      
# --------------------------------------------------------------------------------------------
# txn                            ApbSeqItem  -     @824                                       
#   apb_write_paddr              integral    9     'h1                                        
#   apb_read_paddr               integral    9     'h1c6                                      
#   apb_write_data               integral    8     'h1a                                       
#   transfer                     integral    1     'h1                                        
#   READ_WRITE                   integral    1     'h0                                        
#   apb_read_data_out            integral    8     'h0                                        
#   begin_time                   time        64    175                                        
#   depth                        int         32    'd2                                        
#   parent sequence (name)       string      11    writeseq1_h                                
#   parent sequence (full name)  string      43    uvm_test_top.env_h.act_h.seqr_h.writeseq1_h
#   sequencer                    string      31    uvm_test_top.env_h.act_h.seqr_h            
# --------------------------------------------------------------------------------------------
# --------------------------------------DRIVER----------------------------------
# UVM_INFO ApbScoreboard.sv(39) @ 185: uvm_test_top.env_h.scb_h [SB] EXPECTED TRANSACTION: size = 1 | TRANSFER = 1 | RW = 0 | WDATA = 6d | WPADDR = 2 | RPADDR = 0
# ----------------------------------------------INPUT MONITOR-------------------------------------------------------
# --------------------------------------------
# Name                 Type        Size  Value
# --------------------------------------------
# ip_mon_h             ApbSeqItem  -     @685 
#   apb_write_paddr    integral    9     'h2  
#   apb_read_paddr     integral    9     'h0  
#   apb_write_data     integral    8     'h6d 
#   transfer           integral    1     'h1  
#   READ_WRITE         integral    1     'h0  
#   apb_read_data_out  integral    8     'h0  
# --------------------------------------------
# WRITE ADDRESS = 000000010  READ ADDRESS =000000000 
# THE RESET IS 1
# ----------------------------------------------INPUT MONITOR-------------------------------------------------------
# UVM_INFO ApbScoreboard.sv(46) @ 185: uvm_test_top.env_h.scb_h [SB] ACTUAL TRANSACTION: size = 1 | TRANSFER = 1 | RW = 0 | WPADDR = 2 | WDATA = 6d | RDATA = 0 | RPADDR = 0
# ----------------------------------------------OUTPUT MONITOR-------------------------------------------------------
# UVM_INFO ApbOpMonitor.sv(43) @ 185: uvm_test_top.env_h.pass_h.op_mon_h [OUTPUT MONITOR] [185] transfer =1 , READ_WRITE =0, apb_write_paddr =000000010 , apb_write_data =6d , apb_read_paddr =x, apb_read_data=x
# ----------------------------------------------OUTPUT MONITOR-------------------------------------------------------
# FOR COMPARING : WRITE DATA =6d READ DATA OUT =32
# ---------------------------------------------------------------------PASS---------------------------------------------------------------------
# UVM_INFO ApbScoreboard.sv(84) @ 185: uvm_test_top.env_h.scb_h [COMPARE] WRITE PASS | EXPECTED WDATA = 6d  ACTUAL WDATA =6d |EXPECTED  WRITE ADDR = 2 ACTUAL WRITE ADDR =2
# WRITE_ADDRESS_VALIDITY: ASSERTION PASS
# TRANSFER_VALIDITY: ASSERTION PASS
# WRITE_ADDRESS_STABILITY: ASSERTION PASS
# UVM_INFO ApbDriver.sv(63) @ 195: uvm_test_top.env_h.act_h.drv_h [DRIVER] [195] presetn = 1, transfer = 1, READ_WRITE = 0, apb_write_paddr = 001, apb_write_data = 1a, apb_read_paddr = 1c6
# ---------------------------------DRIVER-------------------
# --------------------------------------------------------------------------------------------
# Name                           Type        Size  Value                                      
# --------------------------------------------------------------------------------------------
# txn                            ApbSeqItem  -     @824                                       
#   apb_write_paddr              integral    9     'h1                                        
#   apb_read_paddr               integral    9     'h1c6                                      
#   apb_write_data               integral    8     'h1a                                       
#   transfer                     integral    1     'h1                                        
#   READ_WRITE                   integral    1     'h0                                        
#   apb_read_data_out            integral    8     'h0                                        
#   begin_time                   time        64    185                                        
#   end_time                     time        64    185                                        
#   depth                        int         32    'd2                                        
#   parent sequence (name)       string      11    writeseq1_h                                
#   parent sequence (full name)  string      43    uvm_test_top.env_h.act_h.seqr_h.writeseq1_h
#   sequencer                    string      31    uvm_test_top.env_h.act_h.seqr_h            
# --------------------------------------------------------------------------------------------
# --------------------------------------DRIVER----------------------------------
# UVM_INFO ApbScoreboard.sv(46) @ 195: uvm_test_top.env_h.scb_h [SB] ACTUAL TRANSACTION: size = 1 | TRANSFER = 1 | RW = 0 | WPADDR = 1 | WDATA = 1a | RDATA = 0 | RPADDR = 0
# ----------------------------------------------OUTPUT MONITOR-------------------------------------------------------
# UVM_INFO ApbOpMonitor.sv(43) @ 195: uvm_test_top.env_h.pass_h.op_mon_h [OUTPUT MONITOR] [195] transfer =1 , READ_WRITE =0, apb_write_paddr =000000001 , apb_write_data =1a , apb_read_paddr =x, apb_read_data=x
# ----------------------------------------------OUTPUT MONITOR-------------------------------------------------------
# UVM_INFO ApbScoreboard.sv(39) @ 195: uvm_test_top.env_h.scb_h [SB] EXPECTED TRANSACTION: size = 1 | TRANSFER = 1 | RW = 0 | WDATA = 1a | WPADDR = 1 | RPADDR = 0
# ----------------------------------------------INPUT MONITOR-------------------------------------------------------
# --------------------------------------------
# Name                 Type        Size  Value
# --------------------------------------------
# ip_mon_h             ApbSeqItem  -     @685 
#   apb_write_paddr    integral    9     'h1  
#   apb_read_paddr     integral    9     'h0  
#   apb_write_data     integral    8     'h1a 
#   transfer           integral    1     'h1  
#   READ_WRITE         integral    1     'h0  
#   apb_read_data_out  integral    8     'h0  
# --------------------------------------------
# WRITE ADDRESS = 000000001  READ ADDRESS =000000000 
# THE RESET IS 1
# ----------------------------------------------INPUT MONITOR-------------------------------------------------------
# WRITE ADDRESS == 000000001
# SLAVE 1
# FOR COMPARING : WRITE DATA =1a READ DATA OUT =32
# ---------------------------------------------------------------------PASS---------------------------------------------------------------------
# UVM_INFO ApbScoreboard.sv(84) @ 195: uvm_test_top.env_h.scb_h [COMPARE] WRITE PASS | EXPECTED WDATA = 1a  ACTUAL WDATA =1a |EXPECTED  WRITE ADDR = 1 ACTUAL WRITE ADDR =1
# WRITE_ADDRESS_VALIDITY: ASSERTION PASS
# TRANSFER_VALIDITY: ASSERTION PASS
# ** Error: WRITE_ADDRESS_STABILITY: ASSERTION FAIL
#    Time: 195 ns Started: 185 ns  Scope: top.intf.write_address_stability File: ApbInterface.sv Line: 70 Expr: $stable(apb_write_paddr)
# UVM_INFO ApbDriver.sv(63) @ 205: uvm_test_top.env_h.act_h.drv_h [DRIVER] [205] presetn = 1, transfer = 1, READ_WRITE = 0, apb_write_paddr = 009, apb_write_data = 7d, apb_read_paddr = 1fd
# ---------------------------------DRIVER-------------------
# --------------------------------------------------------------------------------------------
# Name                           Type        Size  Value                                      
# --------------------------------------------------------------------------------------------
# txn                            ApbSeqItem  -     @828                                       
#   apb_write_paddr              integral    9     'h9                                        
#   apb_read_paddr               integral    9     'h1fd                                      
#   apb_write_data               integral    8     'h7d                                       
#   transfer                     integral    1     'h1                                        
#   READ_WRITE                   integral    1     'h0                                        
#   apb_read_data_out            integral    8     'h0                                        
#   begin_time                   time        64    195                                        
#   depth                        int         32    'd2                                        
#   parent sequence (name)       string      11    writeseq1_h                                
#   parent sequence (full name)  string      43    uvm_test_top.env_h.act_h.seqr_h.writeseq1_h
#   sequencer                    string      31    uvm_test_top.env_h.act_h.seqr_h            
# --------------------------------------------------------------------------------------------
# --------------------------------------DRIVER----------------------------------
# UVM_INFO ApbScoreboard.sv(39) @ 205: uvm_test_top.env_h.scb_h [SB] EXPECTED TRANSACTION: size = 1 | TRANSFER = 1 | RW = 0 | WDATA = 1a | WPADDR = 1 | RPADDR = 0
# ----------------------------------------------INPUT MONITOR-------------------------------------------------------
# --------------------------------------------
# Name                 Type        Size  Value
# --------------------------------------------
# ip_mon_h             ApbSeqItem  -     @685 
#   apb_write_paddr    integral    9     'h1  
#   apb_read_paddr     integral    9     'h0  
#   apb_write_data     integral    8     'h1a 
#   transfer           integral    1     'h1  
#   READ_WRITE         integral    1     'h0  
#   apb_read_data_out  integral    8     'h0  
# --------------------------------------------
# WRITE ADDRESS = 000000001  READ ADDRESS =000000000 
# THE RESET IS 1
# ----------------------------------------------INPUT MONITOR-------------------------------------------------------
# UVM_INFO ApbScoreboard.sv(46) @ 205: uvm_test_top.env_h.scb_h [SB] ACTUAL TRANSACTION: size = 1 | TRANSFER = 1 | RW = 0 | WPADDR = 1 | WDATA = 1a | RDATA = 0 | RPADDR = 0
# ----------------------------------------------OUTPUT MONITOR-------------------------------------------------------
# UVM_INFO ApbOpMonitor.sv(43) @ 205: uvm_test_top.env_h.pass_h.op_mon_h [OUTPUT MONITOR] [205] transfer =1 , READ_WRITE =0, apb_write_paddr =000000001 , apb_write_data =1a , apb_read_paddr =x, apb_read_data=x
# ----------------------------------------------OUTPUT MONITOR-------------------------------------------------------
# FOR COMPARING : WRITE DATA =1a READ DATA OUT =32
# ---------------------------------------------------------------------PASS---------------------------------------------------------------------
# UVM_INFO ApbScoreboard.sv(84) @ 205: uvm_test_top.env_h.scb_h [COMPARE] WRITE PASS | EXPECTED WDATA = 1a  ACTUAL WDATA =1a |EXPECTED  WRITE ADDR = 1 ACTUAL WRITE ADDR =1
# WRITE_ADDRESS_VALIDITY: ASSERTION PASS
# TRANSFER_VALIDITY: ASSERTION PASS
# WRITE_ADDRESS_STABILITY: ASSERTION PASS
# UVM_INFO ApbDriver.sv(63) @ 215: uvm_test_top.env_h.act_h.drv_h [DRIVER] [215] presetn = 1, transfer = 1, READ_WRITE = 0, apb_write_paddr = 009, apb_write_data = 7d, apb_read_paddr = 1fd
# ---------------------------------DRIVER-------------------
# --------------------------------------------------------------------------------------------
# Name                           Type        Size  Value                                      
# --------------------------------------------------------------------------------------------
# txn                            ApbSeqItem  -     @828                                       
#   apb_write_paddr              integral    9     'h9                                        
#   apb_read_paddr               integral    9     'h1fd                                      
#   apb_write_data               integral    8     'h7d                                       
#   transfer                     integral    1     'h1                                        
#   READ_WRITE                   integral    1     'h0                                        
#   apb_read_data_out            integral    8     'h0                                        
#   begin_time                   time        64    205                                        
#   end_time                     time        64    205                                        
#   depth                        int         32    'd2                                        
#   parent sequence (name)       string      11    writeseq1_h                                
#   parent sequence (full name)  string      43    uvm_test_top.env_h.act_h.seqr_h.writeseq1_h
#   sequencer                    string      31    uvm_test_top.env_h.act_h.seqr_h            
# --------------------------------------------------------------------------------------------
# --------------------------------------DRIVER----------------------------------
# UVM_INFO ApbScoreboard.sv(46) @ 215: uvm_test_top.env_h.scb_h [SB] ACTUAL TRANSACTION: size = 1 | TRANSFER = 1 | RW = 0 | WPADDR = 9 | WDATA = 7d | RDATA = 0 | RPADDR = 0
# ----------------------------------------------OUTPUT MONITOR-------------------------------------------------------
# UVM_INFO ApbOpMonitor.sv(43) @ 215: uvm_test_top.env_h.pass_h.op_mon_h [OUTPUT MONITOR] [215] transfer =1 , READ_WRITE =0, apb_write_paddr =000001001 , apb_write_data =7d , apb_read_paddr =x, apb_read_data=x
# ----------------------------------------------OUTPUT MONITOR-------------------------------------------------------
# UVM_INFO ApbScoreboard.sv(39) @ 215: uvm_test_top.env_h.scb_h [SB] EXPECTED TRANSACTION: size = 1 | TRANSFER = 1 | RW = 0 | WDATA = 7d | WPADDR = 9 | RPADDR = 0
# ----------------------------------------------INPUT MONITOR-------------------------------------------------------
# --------------------------------------------
# Name                 Type        Size  Value
# --------------------------------------------
# ip_mon_h             ApbSeqItem  -     @685 
#   apb_write_paddr    integral    9     'h9  
#   apb_read_paddr     integral    9     'h0  
#   apb_write_data     integral    8     'h7d 
#   transfer           integral    1     'h1  
#   READ_WRITE         integral    1     'h0  
#   apb_read_data_out  integral    8     'h0  
# --------------------------------------------
# WRITE ADDRESS = 000001001  READ ADDRESS =000000000 
# THE RESET IS 1
# ----------------------------------------------INPUT MONITOR-------------------------------------------------------
# WRITE ADDRESS == 000001001
# SLAVE 1
# FOR COMPARING : WRITE DATA =7d READ DATA OUT =32
# ---------------------------------------------------------------------PASS---------------------------------------------------------------------
# UVM_INFO ApbScoreboard.sv(84) @ 215: uvm_test_top.env_h.scb_h [COMPARE] WRITE PASS | EXPECTED WDATA = 7d  ACTUAL WDATA =7d |EXPECTED  WRITE ADDR = 9 ACTUAL WRITE ADDR =9
# WRITE_ADDRESS_VALIDITY: ASSERTION PASS
# TRANSFER_VALIDITY: ASSERTION PASS
# ** Error: WRITE_ADDRESS_STABILITY: ASSERTION FAIL
#    Time: 215 ns Started: 205 ns  Scope: top.intf.write_address_stability File: ApbInterface.sv Line: 70 Expr: $stable(apb_write_paddr)
# UVM_INFO ApbDriver.sv(63) @ 225: uvm_test_top.env_h.act_h.drv_h [DRIVER] [225] presetn = 1, transfer = 1, READ_WRITE = 0, apb_write_paddr = 000, apb_write_data = da, apb_read_paddr = 09a
# ---------------------------------DRIVER-------------------
# --------------------------------------------------------------------------------------------
# Name                           Type        Size  Value                                      
# --------------------------------------------------------------------------------------------
# txn                            ApbSeqItem  -     @836                                       
#   apb_write_paddr              integral    9     'h0                                        
#   apb_read_paddr               integral    9     'h9a                                       
#   apb_write_data               integral    8     'hda                                       
#   transfer                     integral    1     'h1                                        
#   READ_WRITE                   integral    1     'h0                                        
#   apb_read_data_out            integral    8     'h0                                        
#   begin_time                   time        64    215                                        
#   depth                        int         32    'd2                                        
#   parent sequence (name)       string      11    writeseq1_h                                
#   parent sequence (full name)  string      43    uvm_test_top.env_h.act_h.seqr_h.writeseq1_h
#   sequencer                    string      31    uvm_test_top.env_h.act_h.seqr_h            
# --------------------------------------------------------------------------------------------
# --------------------------------------DRIVER----------------------------------
# UVM_INFO ApbScoreboard.sv(39) @ 225: uvm_test_top.env_h.scb_h [SB] EXPECTED TRANSACTION: size = 1 | TRANSFER = 1 | RW = 0 | WDATA = 7d | WPADDR = 9 | RPADDR = 0
# ----------------------------------------------INPUT MONITOR-------------------------------------------------------
# --------------------------------------------
# Name                 Type        Size  Value
# --------------------------------------------
# ip_mon_h             ApbSeqItem  -     @685 
#   apb_write_paddr    integral    9     'h9  
#   apb_read_paddr     integral    9     'h0  
#   apb_write_data     integral    8     'h7d 
#   transfer           integral    1     'h1  
#   READ_WRITE         integral    1     'h0  
#   apb_read_data_out  integral    8     'h0  
# --------------------------------------------
# WRITE ADDRESS = 000001001  READ ADDRESS =000000000 
# THE RESET IS 1
# ----------------------------------------------INPUT MONITOR-------------------------------------------------------
# UVM_INFO ApbScoreboard.sv(46) @ 225: uvm_test_top.env_h.scb_h [SB] ACTUAL TRANSACTION: size = 1 | TRANSFER = 1 | RW = 0 | WPADDR = 9 | WDATA = 7d | RDATA = 0 | RPADDR = 0
# ----------------------------------------------OUTPUT MONITOR-------------------------------------------------------
# UVM_INFO ApbOpMonitor.sv(43) @ 225: uvm_test_top.env_h.pass_h.op_mon_h [OUTPUT MONITOR] [225] transfer =1 , READ_WRITE =0, apb_write_paddr =000001001 , apb_write_data =7d , apb_read_paddr =x, apb_read_data=x
# ----------------------------------------------OUTPUT MONITOR-------------------------------------------------------
# FOR COMPARING : WRITE DATA =7d READ DATA OUT =32
# ---------------------------------------------------------------------PASS---------------------------------------------------------------------
# UVM_INFO ApbScoreboard.sv(84) @ 225: uvm_test_top.env_h.scb_h [COMPARE] WRITE PASS | EXPECTED WDATA = 7d  ACTUAL WDATA =7d |EXPECTED  WRITE ADDR = 9 ACTUAL WRITE ADDR =9
# WRITE_ADDRESS_VALIDITY: ASSERTION PASS
# TRANSFER_VALIDITY: ASSERTION PASS
# WRITE_ADDRESS_STABILITY: ASSERTION PASS
# UVM_INFO ApbDriver.sv(63) @ 235: uvm_test_top.env_h.act_h.drv_h [DRIVER] [235] presetn = 1, transfer = 1, READ_WRITE = 0, apb_write_paddr = 000, apb_write_data = da, apb_read_paddr = 09a
# ---------------------------------DRIVER-------------------
# --------------------------------------------------------------------------------------------
# Name                           Type        Size  Value                                      
# --------------------------------------------------------------------------------------------
# txn                            ApbSeqItem  -     @836                                       
#   apb_write_paddr              integral    9     'h0                                        
#   apb_read_paddr               integral    9     'h9a                                       
#   apb_write_data               integral    8     'hda                                       
#   transfer                     integral    1     'h1                                        
#   READ_WRITE                   integral    1     'h0                                        
#   apb_read_data_out            integral    8     'h0                                        
#   begin_time                   time        64    225                                        
#   end_time                     time        64    225                                        
#   depth                        int         32    'd2                                        
#   parent sequence (name)       string      11    writeseq1_h                                
#   parent sequence (full name)  string      43    uvm_test_top.env_h.act_h.seqr_h.writeseq1_h
#   sequencer                    string      31    uvm_test_top.env_h.act_h.seqr_h            
# --------------------------------------------------------------------------------------------
# --------------------------------------DRIVER----------------------------------
# UVM_INFO ApbScoreboard.sv(46) @ 235: uvm_test_top.env_h.scb_h [SB] ACTUAL TRANSACTION: size = 1 | TRANSFER = 1 | RW = 0 | WPADDR = 0 | WDATA = da | RDATA = 0 | RPADDR = 0
# ----------------------------------------------OUTPUT MONITOR-------------------------------------------------------
# UVM_INFO ApbOpMonitor.sv(43) @ 235: uvm_test_top.env_h.pass_h.op_mon_h [OUTPUT MONITOR] [235] transfer =1 , READ_WRITE =0, apb_write_paddr =000000000 , apb_write_data =da , apb_read_paddr =x, apb_read_data=x
# ----------------------------------------------OUTPUT MONITOR-------------------------------------------------------
# UVM_INFO ApbScoreboard.sv(39) @ 235: uvm_test_top.env_h.scb_h [SB] EXPECTED TRANSACTION: size = 1 | TRANSFER = 1 | RW = 0 | WDATA = da | WPADDR = 0 | RPADDR = 0
# ----------------------------------------------INPUT MONITOR-------------------------------------------------------
# --------------------------------------------
# Name                 Type        Size  Value
# --------------------------------------------
# ip_mon_h             ApbSeqItem  -     @685 
#   apb_write_paddr    integral    9     'h0  
#   apb_read_paddr     integral    9     'h0  
#   apb_write_data     integral    8     'hda 
#   transfer           integral    1     'h1  
#   READ_WRITE         integral    1     'h0  
#   apb_read_data_out  integral    8     'h0  
# --------------------------------------------
# WRITE ADDRESS = 000000000  READ ADDRESS =000000000 
# THE RESET IS 1
# ----------------------------------------------INPUT MONITOR-------------------------------------------------------
# WRITE ADDRESS == 000000000
# SLAVE 1
# FOR COMPARING : WRITE DATA =da READ DATA OUT =da
# ---------------------------------------------------------------------PASS---------------------------------------------------------------------
# UVM_INFO ApbScoreboard.sv(84) @ 235: uvm_test_top.env_h.scb_h [COMPARE] WRITE PASS | EXPECTED WDATA = da  ACTUAL WDATA =da |EXPECTED  WRITE ADDR = 0 ACTUAL WRITE ADDR =0
# WRITE_ADDRESS_VALIDITY: ASSERTION PASS
# TRANSFER_VALIDITY: ASSERTION PASS
# ** Error: WRITE_ADDRESS_STABILITY: ASSERTION FAIL
#    Time: 235 ns Started: 225 ns  Scope: top.intf.write_address_stability File: ApbInterface.sv Line: 70 Expr: $stable(apb_write_paddr)
# UVM_INFO ApbDriver.sv(63) @ 245: uvm_test_top.env_h.act_h.drv_h [DRIVER] [245] presetn = 1, transfer = 1, READ_WRITE = 0, apb_write_paddr = 002, apb_write_data = 50, apb_read_paddr = 034
# ---------------------------------DRIVER-------------------
# --------------------------------------------------------------------------------------------
# Name                           Type        Size  Value                                      
# --------------------------------------------------------------------------------------------
# txn                            ApbSeqItem  -     @840                                       
#   apb_write_paddr              integral    9     'h2                                        
#   apb_read_paddr               integral    9     'h34                                       
#   apb_write_data               integral    8     'h50                                       
#   transfer                     integral    1     'h1                                        
#   READ_WRITE                   integral    1     'h0                                        
#   apb_read_data_out            integral    8     'h0                                        
#   begin_time                   time        64    235                                        
#   depth                        int         32    'd2                                        
#   parent sequence (name)       string      11    writeseq1_h                                
#   parent sequence (full name)  string      43    uvm_test_top.env_h.act_h.seqr_h.writeseq1_h
#   sequencer                    string      31    uvm_test_top.env_h.act_h.seqr_h            
# --------------------------------------------------------------------------------------------
# --------------------------------------DRIVER----------------------------------
# UVM_INFO ApbScoreboard.sv(39) @ 245: uvm_test_top.env_h.scb_h [SB] EXPECTED TRANSACTION: size = 1 | TRANSFER = 1 | RW = 0 | WDATA = da | WPADDR = 0 | RPADDR = 0
# ----------------------------------------------INPUT MONITOR-------------------------------------------------------
# --------------------------------------------
# Name                 Type        Size  Value
# --------------------------------------------
# ip_mon_h             ApbSeqItem  -     @685 
#   apb_write_paddr    integral    9     'h0  
#   apb_read_paddr     integral    9     'h0  
#   apb_write_data     integral    8     'hda 
#   transfer           integral    1     'h1  
#   READ_WRITE         integral    1     'h0  
#   apb_read_data_out  integral    8     'h0  
# --------------------------------------------
# WRITE ADDRESS = 000000000  READ ADDRESS =000000000 
# THE RESET IS 1
# ----------------------------------------------INPUT MONITOR-------------------------------------------------------
