# vsim -c top 
# Start time: 14:41:19 on May 26,2025
# ** Note: (vsim-3813) Design is being optimized due to module recompilation...
# ** Note: (vopt-143) Recognized 1 FSM in module "master_bridge(fast)".
# ** Warning: ApbTop.sv(12): (vopt-2685) [TFMPC] - Too few port connections for 'dut'.  Expected 9, found 8.
# ** Warning: ApbTop.sv(12): (vopt-2718) [TFMPC] - Missing connection for port 'PSLVERR'.
# //  Questa Sim
# //  Version 10.6c linux Jul 25 2017
# //
# //  Copyright 1991-2017 Mentor Graphics Corporation
# //  All Rights Reserved.
# //
# //  QuestaSim and its associated documentation contain trade
# //  secrets and commercial or financial information that are the property of
# //  Mentor Graphics Corporation and are privileged, confidential,
# //  and exempt from disclosure under the Freedom of Information Act,
# //  5 U.S.C. Section 552. Furthermore, this information
# //  is prohibited from disclosure under the Trade Secrets Act,
# //  18 U.S.C. Section 1905.
# //
# Loading sv_std.std
# Loading mtiUvm.uvm_pkg
# Loading work.ApbTop_sv_unit(fast)
# Loading work.top(fast)
# Loading work.APB_Protocol(fast)
# Loading work.master_bridge(fast)
# Loading work.slave1(fast)
# Loading work.slave2(fast)
# Loading work.ApbInterface(fast)
# Loading mtiUvm.questa_uvm_pkg(fast)
# Loading work.ApbInterface(fast)
# Loading /tools/mentor/questasim_10.6c/questasim/uvm-1.1d/linux/uvm_dpi.so
# ----------------------------------------------------------------
# UVM-1.1d
# (C) 2007-2013 Mentor Graphics Corporation
# (C) 2007-2013 Cadence Design Systems, Inc.
# (C) 2006-2013 Synopsys, Inc.
# (C) 2011-2013 Cypress Semiconductor Corp.
# ----------------------------------------------------------------
# 
#   ***********       IMPORTANT RELEASE NOTES         ************
# 
#   You are using a version of the UVM library that has been compiled
#   with `UVM_NO_DEPRECATED undefined.
#   See http://www.eda.org/svdb/view.php?id=3313 for more details.
# 
#   You are using a version of the UVM library that has been compiled
#   with `UVM_OBJECT_MUST_HAVE_CONSTRUCTOR undefined.
#   See http://www.eda.org/svdb/view.php?id=3770 for more details.
# 
#       (Specify +UVM_NO_RELNOTES to turn off this notice)
# 
# UVM_INFO verilog_src/questa_uvm_pkg-1.2/src/questa_uvm_pkg.sv(215) @ 0: reporter [Questa UVM] QUESTA_UVM-1.2.3
# UVM_INFO verilog_src/questa_uvm_pkg-1.2/src/questa_uvm_pkg.sv(217) @ 0: reporter [Questa UVM]  questa_uvm::init(+struct)
# UVM_INFO @ 0: reporter [RNTST] Running test ApbRegressionTest...
# UVM_INFO @ 0: reporter [UVMTOP] UVM testbench topology:
# ------------------------------------------------------------------
# Name                         Type                      Size  Value
# ------------------------------------------------------------------
# uvm_test_top                 ApbRegressionTest         -     @471 
#   env_h                      ApbEnvironment            -     @478 
#     act_h                    ApbActiveAgent            -     @501 
#       drv_h                  ApbDriver                 -     @553 
#         rsp_port             uvm_analysis_port         -     @568 
#         seq_item_port        uvm_seq_item_pull_port    -     @560 
#       ip_mon_h               ApbIpMonitor              -     @685 
#         item_collected_port  uvm_analysis_port         -     @692 
#       seqr_h                 ApbSequencer              -     @576 
#         rsp_export           uvm_analysis_export       -     @583 
#         seq_item_export      uvm_seq_item_pull_imp     -     @677 
#         arbitration_queue    array                     0     -    
#         lock_queue           array                     0     -    
#         num_last_reqs        integral                  32    'd1  
#         num_last_rsps        integral                  32    'd1  
#     cov_h                    ApbCoverage               -     @522 
#       analysis_imp           uvm_analysis_imp          -     @529 
#       ip_mon_imp             uvm_analysis_imp_ip_mon   -     @537 
#       op_mon_imp             uvm_analysis_imp_op_mon   -     @545 
#     pass_h                   ApbPassiveAgent           -     @508 
#       op_mon_h               ApbOpMonitor              -     @711 
#         item_collected_port  uvm_analysis_port         -     @718 
#     scb_h                    ApbScoreboard             -     @515 
#       in_mon_port            uvm_analysis_imp_in_mon   -     @731 
#       out_mon_port           uvm_analysis_imp_out_mon  -     @739 
# ------------------------------------------------------------------
# 
# UVM_INFO ApbTest.sv(305) @ 0: uvm_test_top [TEST] Running ApbRegressionTest
# UVM_INFO ApbScoreboard.sv(39) @ 5: uvm_test_top.env_h.scb_h [SB] EXPECTED TRANSACTION: size = 1 | TRANSFER = 0 | RW = 0 | WDATA = 0 | WPADDR = 0 | RPADDR = 0
# ----------------------------------------------INPUT MONITOR-------------------------------------------------------
# --------------------------------------------
# Name                 Type        Size  Value
# --------------------------------------------
# ip_mon_h             ApbSeqItem  -     @701 
#   apb_write_paddr    integral    9     'h0  
#   apb_read_paddr     integral    9     'h0  
#   apb_write_data     integral    8     'h0  
#   transfer           integral    1     'h0  
#   READ_WRITE         integral    1     'h0  
#   apb_read_data_out  integral    8     'h0  
# --------------------------------------------
# WRITE ADDRESS = 000000000  READ ADDRESS =000000000 
# THE RESET IS 0
# ----------------------------------------------INPUT MONITOR-------------------------------------------------------
# UVM_INFO ApbScoreboard.sv(46) @ 5: uvm_test_top.env_h.scb_h [SB] ACTUAL TRANSACTION: size = 1 | TRANSFER = 0 | RW = 0 | WPADDR = 0 | WDATA = 0 | RDATA = 0 | RPADDR = 0
# ----------------------------------------------OUTPUT MONITOR-------------------------------------------------------
# UVM_INFO ApbOpMonitor.sv(43) @ 5: uvm_test_top.env_h.pass_h.op_mon_h [OUTPUT MONITOR] [5] transfer =x , READ_WRITE =x, apb_write_paddr =xxxxxxxxx , apb_write_data =xx , apb_read_paddr =x, apb_read_data=x
# ----------------------------------------------OUTPUT MONITOR-------------------------------------------------------
# UVM_INFO ApbScoreboard.sv(39) @ 15: uvm_test_top.env_h.scb_h [SB] EXPECTED TRANSACTION: size = 1 | TRANSFER = 0 | RW = 0 | WDATA = 0 | WPADDR = 0 | RPADDR = 0
# ----------------------------------------------INPUT MONITOR-------------------------------------------------------
# --------------------------------------------
# Name                 Type        Size  Value
# --------------------------------------------
# ip_mon_h             ApbSeqItem  -     @701 
#   apb_write_paddr    integral    9     'h0  
#   apb_read_paddr     integral    9     'h0  
#   apb_write_data     integral    8     'h0  
#   transfer           integral    1     'h0  
#   READ_WRITE         integral    1     'h0  
#   apb_read_data_out  integral    8     'h0  
# --------------------------------------------
# WRITE ADDRESS = 000000000  READ ADDRESS =000000000 
# THE RESET IS 0
# ----------------------------------------------INPUT MONITOR-------------------------------------------------------
# UVM_INFO ApbDriver.sv(63) @ 25: uvm_test_top.env_h.act_h.drv_h [DRIVER] [25] presetn = 1, transfer = 1, READ_WRITE = 0, apb_write_paddr = 002, apb_write_data = 5f, apb_read_paddr = 1d6
# ---------------------------------DRIVER-------------------
# -----------------------------------------------------------------------------------------
# Name                           Type        Size  Value                                   
# -----------------------------------------------------------------------------------------
# txn                            ApbSeqItem  -     @763                                    
#   apb_write_paddr              integral    9     'h2                                     
#   apb_read_paddr               integral    9     'h1d6                                   
#   apb_write_data               integral    8     'h5f                                    
#   transfer                     integral    1     'h1                                     
#   READ_WRITE                   integral    1     'h0                                     
#   apb_read_data_out            integral    8     'h0                                     
#   begin_time                   time        64    15                                      
#   depth                        int         32    'd2                                     
#   parent sequence (name)       string      8     write1_h                                
#   parent sequence (full name)  string      40    uvm_test_top.env_h.act_h.seqr_h.write1_h
#   sequencer                    string      31    uvm_test_top.env_h.act_h.seqr_h         
# -----------------------------------------------------------------------------------------
# --------------------------------------DRIVER----------------------------------
# UVM_INFO ApbScoreboard.sv(39) @ 25: uvm_test_top.env_h.scb_h [SB] EXPECTED TRANSACTION: size = 2 | TRANSFER = 0 | RW = 0 | WDATA = 0 | WPADDR = 0 | RPADDR = 0
# ----------------------------------------------INPUT MONITOR-------------------------------------------------------
# --------------------------------------------
# Name                 Type        Size  Value
# --------------------------------------------
# ip_mon_h             ApbSeqItem  -     @701 
#   apb_write_paddr    integral    9     'h0  
#   apb_read_paddr     integral    9     'h0  
#   apb_write_data     integral    8     'h0  
#   transfer           integral    1     'h0  
#   READ_WRITE         integral    1     'h0  
#   apb_read_data_out  integral    8     'h0  
# --------------------------------------------
# WRITE ADDRESS = 000000000  READ ADDRESS =000000000 
# THE RESET IS 1
# ----------------------------------------------INPUT MONITOR-------------------------------------------------------
# UVM_INFO ApbScoreboard.sv(46) @ 25: uvm_test_top.env_h.scb_h [SB] ACTUAL TRANSACTION: size = 1 | TRANSFER = 0 | RW = 0 | WPADDR = 0 | WDATA = 0 | RDATA = 0 | RPADDR = 0
# ----------------------------------------------OUTPUT MONITOR-------------------------------------------------------
# UVM_INFO ApbOpMonitor.sv(43) @ 25: uvm_test_top.env_h.pass_h.op_mon_h [OUTPUT MONITOR] [25] transfer =x , READ_WRITE =x, apb_write_paddr =xxxxxxxxx , apb_write_data =xx , apb_read_paddr =x, apb_read_data=x
# ----------------------------------------------OUTPUT MONITOR-------------------------------------------------------
# UVM_INFO ApbDriver.sv(63) @ 35: uvm_test_top.env_h.act_h.drv_h [DRIVER] [35] presetn = 1, transfer = 1, READ_WRITE = 0, apb_write_paddr = 002, apb_write_data = 5f, apb_read_paddr = 1d6
# ---------------------------------DRIVER-------------------
# -----------------------------------------------------------------------------------------
# Name                           Type        Size  Value                                   
# -----------------------------------------------------------------------------------------
# txn                            ApbSeqItem  -     @763                                    
#   apb_write_paddr              integral    9     'h2                                     
#   apb_read_paddr               integral    9     'h1d6                                   
#   apb_write_data               integral    8     'h5f                                    
#   transfer                     integral    1     'h1                                     
#   READ_WRITE                   integral    1     'h0                                     
#   apb_read_data_out            integral    8     'h0                                     
#   begin_time                   time        64    25                                      
#   end_time                     time        64    25                                      
#   depth                        int         32    'd2                                     
#   parent sequence (name)       string      8     write1_h                                
#   parent sequence (full name)  string      40    uvm_test_top.env_h.act_h.seqr_h.write1_h
#   sequencer                    string      31    uvm_test_top.env_h.act_h.seqr_h         
# -----------------------------------------------------------------------------------------
# --------------------------------------DRIVER----------------------------------
# UVM_INFO ApbScoreboard.sv(39) @ 35: uvm_test_top.env_h.scb_h [SB] EXPECTED TRANSACTION: size = 2 | TRANSFER = 1 | RW = 0 | WDATA = 5f | WPADDR = 2 | RPADDR = 0
# ----------------------------------------------INPUT MONITOR-------------------------------------------------------
# --------------------------------------------
# Name                 Type        Size  Value
# --------------------------------------------
# ip_mon_h             ApbSeqItem  -     @701 
#   apb_write_paddr    integral    9     'h2  
#   apb_read_paddr     integral    9     'h0  
#   apb_write_data     integral    8     'h5f 
#   transfer           integral    1     'h1  
#   READ_WRITE         integral    1     'h0  
#   apb_read_data_out  integral    8     'h0  
# --------------------------------------------
# WRITE ADDRESS = 000000010  READ ADDRESS =000000000 
# THE RESET IS 1
# ----------------------------------------------INPUT MONITOR-------------------------------------------------------
# WRITE ADDRESS == 000000010
# SLAVE 1
# WRITE_ADDRESS_VALIDITY: ASSERTION PASS
# TRANSFER_VALIDITY: ASSERTION PASS
# UVM_INFO ApbDriver.sv(63) @ 45: uvm_test_top.env_h.act_h.drv_h [DRIVER] [45] presetn = 1, transfer = 1, READ_WRITE = 0, apb_write_paddr = 003, apb_write_data = 7c, apb_read_paddr = 1f4
# ---------------------------------DRIVER-------------------
# -----------------------------------------------------------------------------------------
# Name                           Type        Size  Value                                   
# -----------------------------------------------------------------------------------------
# txn                            ApbSeqItem  -     @792                                    
#   apb_write_paddr              integral    9     'h3                                     
#   apb_read_paddr               integral    9     'h1f4                                   
#   apb_write_data               integral    8     'h7c                                    
#   transfer                     integral    1     'h1                                     
#   READ_WRITE                   integral    1     'h0                                     
#   apb_read_data_out            integral    8     'h0                                     
#   begin_time                   time        64    35                                      
#   depth                        int         32    'd2                                     
#   parent sequence (name)       string      8     write1_h                                
#   parent sequence (full name)  string      40    uvm_test_top.env_h.act_h.seqr_h.write1_h
#   sequencer                    string      31    uvm_test_top.env_h.act_h.seqr_h         
# -----------------------------------------------------------------------------------------
# --------------------------------------DRIVER----------------------------------
# UVM_INFO ApbScoreboard.sv(39) @ 45: uvm_test_top.env_h.scb_h [SB] EXPECTED TRANSACTION: size = 3 | TRANSFER = 1 | RW = 0 | WDATA = 5f | WPADDR = 2 | RPADDR = 0
# ----------------------------------------------INPUT MONITOR-------------------------------------------------------
# --------------------------------------------
# Name                 Type        Size  Value
# --------------------------------------------
# ip_mon_h             ApbSeqItem  -     @701 
#   apb_write_paddr    integral    9     'h2  
#   apb_read_paddr     integral    9     'h0  
#   apb_write_data     integral    8     'h5f 
#   transfer           integral    1     'h1  
#   READ_WRITE         integral    1     'h0  
#   apb_read_data_out  integral    8     'h0  
# --------------------------------------------
# WRITE ADDRESS = 000000010  READ ADDRESS =000000000 
# THE RESET IS 1
# ----------------------------------------------INPUT MONITOR-------------------------------------------------------
# UVM_INFO ApbScoreboard.sv(46) @ 45: uvm_test_top.env_h.scb_h [SB] ACTUAL TRANSACTION: size = 1 | TRANSFER = 1 | RW = 0 | WPADDR = 2 | WDATA = 5f | RDATA = 0 | RPADDR = 0
# ----------------------------------------------OUTPUT MONITOR-------------------------------------------------------
# UVM_INFO ApbOpMonitor.sv(43) @ 45: uvm_test_top.env_h.pass_h.op_mon_h [OUTPUT MONITOR] [45] transfer =1 , READ_WRITE =0, apb_write_paddr =000000010 , apb_write_data =5f , apb_read_paddr =x, apb_read_data=x
# ----------------------------------------------OUTPUT MONITOR-------------------------------------------------------
# FOR COMPARING : WRITE DATA =5f READ DATA OUT =xx
# -------------------------------------------------------------------WRITE--PASS---------------------------------------------------------------------
# UVM_INFO ApbScoreboard.sv(84) @ 45: uvm_test_top.env_h.scb_h [COMPARE] WRITE PASS | EXPECTED WDATA = 5f  ACTUAL WDATA =5f |EXPECTED  WRITE ADDR = 2 ACTUAL WRITE ADDR =2
# WRITE_ADDRESS_VALIDITY: ASSERTION PASS
# TRANSFER_VALIDITY: ASSERTION PASS
# UVM_INFO ApbDriver.sv(63) @ 55: uvm_test_top.env_h.act_h.drv_h [DRIVER] [55] presetn = 1, transfer = 1, READ_WRITE = 0, apb_write_paddr = 003, apb_write_data = 7c, apb_read_paddr = 1f4
# ---------------------------------DRIVER-------------------
# -----------------------------------------------------------------------------------------
# Name                           Type        Size  Value                                   
# -----------------------------------------------------------------------------------------
# txn                            ApbSeqItem  -     @792                                    
#   apb_write_paddr              integral    9     'h3                                     
#   apb_read_paddr               integral    9     'h1f4                                   
#   apb_write_data               integral    8     'h7c                                    
#   transfer                     integral    1     'h1                                     
#   READ_WRITE                   integral    1     'h0                                     
#   apb_read_data_out            integral    8     'h0                                     
#   begin_time                   time        64    45                                      
#   end_time                     time        64    45                                      
#   depth                        int         32    'd2                                     
#   parent sequence (name)       string      8     write1_h                                
#   parent sequence (full name)  string      40    uvm_test_top.env_h.act_h.seqr_h.write1_h
#   sequencer                    string      31    uvm_test_top.env_h.act_h.seqr_h         
# -----------------------------------------------------------------------------------------
# --------------------------------------DRIVER----------------------------------
# UVM_INFO ApbScoreboard.sv(39) @ 55: uvm_test_top.env_h.scb_h [SB] EXPECTED TRANSACTION: size = 3 | TRANSFER = 1 | RW = 0 | WDATA = 7c | WPADDR = 3 | RPADDR = 0
# ----------------------------------------------INPUT MONITOR-------------------------------------------------------
# --------------------------------------------
# Name                 Type        Size  Value
# --------------------------------------------
# ip_mon_h             ApbSeqItem  -     @701 
#   apb_write_paddr    integral    9     'h3  
#   apb_read_paddr     integral    9     'h0  
#   apb_write_data     integral    8     'h7c 
#   transfer           integral    1     'h1  
#   READ_WRITE         integral    1     'h0  
#   apb_read_data_out  integral    8     'h0  
# --------------------------------------------
# WRITE ADDRESS = 000000011  READ ADDRESS =000000000 
# THE RESET IS 1
# ----------------------------------------------INPUT MONITOR-------------------------------------------------------
# WRITE ADDRESS == 000000011
# SLAVE 1
# WRITE_ADDRESS_VALIDITY: ASSERTION PASS
# TRANSFER_VALIDITY: ASSERTION PASS
# UVM_INFO ApbDriver.sv(63) @ 65: uvm_test_top.env_h.act_h.drv_h [DRIVER] [65] presetn = 1, transfer = 1, READ_WRITE = 0, apb_write_paddr = 009, apb_write_data = 1c, apb_read_paddr = 044
# ---------------------------------DRIVER-------------------
# -----------------------------------------------------------------------------------------
# Name                           Type        Size  Value                                   
# -----------------------------------------------------------------------------------------
# txn                            ApbSeqItem  -     @796                                    
#   apb_write_paddr              integral    9     'h9                                     
#   apb_read_paddr               integral    9     'h44                                    
#   apb_write_data               integral    8     'h1c                                    
#   transfer                     integral    1     'h1                                     
#   READ_WRITE                   integral    1     'h0                                     
#   apb_read_data_out            integral    8     'h0                                     
#   begin_time                   time        64    55                                      
#   depth                        int         32    'd2                                     
#   parent sequence (name)       string      8     write1_h                                
#   parent sequence (full name)  string      40    uvm_test_top.env_h.act_h.seqr_h.write1_h
#   sequencer                    string      31    uvm_test_top.env_h.act_h.seqr_h         
# -----------------------------------------------------------------------------------------
# --------------------------------------DRIVER----------------------------------
# UVM_INFO ApbScoreboard.sv(39) @ 65: uvm_test_top.env_h.scb_h [SB] EXPECTED TRANSACTION: size = 4 | TRANSFER = 1 | RW = 0 | WDATA = 7c | WPADDR = 3 | RPADDR = 0
# ----------------------------------------------INPUT MONITOR-------------------------------------------------------
# --------------------------------------------
# Name                 Type        Size  Value
# --------------------------------------------
# ip_mon_h             ApbSeqItem  -     @701 
#   apb_write_paddr    integral    9     'h3  
#   apb_read_paddr     integral    9     'h0  
#   apb_write_data     integral    8     'h7c 
#   transfer           integral    1     'h1  
#   READ_WRITE         integral    1     'h0  
#   apb_read_data_out  integral    8     'h0  
# --------------------------------------------
# WRITE ADDRESS = 000000011  READ ADDRESS =000000000 
# THE RESET IS 1
# ----------------------------------------------INPUT MONITOR-------------------------------------------------------
# UVM_INFO ApbScoreboard.sv(46) @ 65: uvm_test_top.env_h.scb_h [SB] ACTUAL TRANSACTION: size = 1 | TRANSFER = 1 | RW = 0 | WPADDR = 3 | WDATA = 7c | RDATA = 0 | RPADDR = 0
# ----------------------------------------------OUTPUT MONITOR-------------------------------------------------------
# UVM_INFO ApbOpMonitor.sv(43) @ 65: uvm_test_top.env_h.pass_h.op_mon_h [OUTPUT MONITOR] [65] transfer =1 , READ_WRITE =0, apb_write_paddr =000000011 , apb_write_data =7c , apb_read_paddr =x, apb_read_data=x
# ----------------------------------------------OUTPUT MONITOR-------------------------------------------------------
# FOR COMPARING : WRITE DATA =7c READ DATA OUT =xx
# -------------------------------------------------------------------WRITE--PASS---------------------------------------------------------------------
# UVM_INFO ApbScoreboard.sv(84) @ 65: uvm_test_top.env_h.scb_h [COMPARE] WRITE PASS | EXPECTED WDATA = 7c  ACTUAL WDATA =7c |EXPECTED  WRITE ADDR = 3 ACTUAL WRITE ADDR =3
# WRITE_ADDRESS_VALIDITY: ASSERTION PASS
# TRANSFER_VALIDITY: ASSERTION PASS
# UVM_INFO ApbDriver.sv(63) @ 75: uvm_test_top.env_h.act_h.drv_h [DRIVER] [75] presetn = 1, transfer = 1, READ_WRITE = 0, apb_write_paddr = 009, apb_write_data = 1c, apb_read_paddr = 044
# ---------------------------------DRIVER-------------------
# -----------------------------------------------------------------------------------------
# Name                           Type        Size  Value                                   
# -----------------------------------------------------------------------------------------
# txn                            ApbSeqItem  -     @796                                    
#   apb_write_paddr              integral    9     'h9                                     
#   apb_read_paddr               integral    9     'h44                                    
#   apb_write_data               integral    8     'h1c                                    
#   transfer                     integral    1     'h1                                     
#   READ_WRITE                   integral    1     'h0                                     
#   apb_read_data_out            integral    8     'h0                                     
#   begin_time                   time        64    65                                      
#   end_time                     time        64    65                                      
#   depth                        int         32    'd2                                     
#   parent sequence (name)       string      8     write1_h                                
#   parent sequence (full name)  string      40    uvm_test_top.env_h.act_h.seqr_h.write1_h
#   sequencer                    string      31    uvm_test_top.env_h.act_h.seqr_h         
# -----------------------------------------------------------------------------------------
# --------------------------------------DRIVER----------------------------------
# UVM_INFO ApbScoreboard.sv(39) @ 75: uvm_test_top.env_h.scb_h [SB] EXPECTED TRANSACTION: size = 4 | TRANSFER = 1 | RW = 0 | WDATA = 1c | WPADDR = 9 | RPADDR = 0
# ----------------------------------------------INPUT MONITOR-------------------------------------------------------
# --------------------------------------------
# Name                 Type        Size  Value
# --------------------------------------------
# ip_mon_h             ApbSeqItem  -     @701 
#   apb_write_paddr    integral    9     'h9  
#   apb_read_paddr     integral    9     'h0  
#   apb_write_data     integral    8     'h1c 
#   transfer           integral    1     'h1  
#   READ_WRITE         integral    1     'h0  
#   apb_read_data_out  integral    8     'h0  
# --------------------------------------------
# WRITE ADDRESS = 000001001  READ ADDRESS =000000000 
# THE RESET IS 1
# ----------------------------------------------INPUT MONITOR-------------------------------------------------------
# WRITE ADDRESS == 000001001
# SLAVE 1
# WRITE_ADDRESS_VALIDITY: ASSERTION PASS
# TRANSFER_VALIDITY: ASSERTION PASS
# UVM_INFO ApbDriver.sv(63) @ 85: uvm_test_top.env_h.act_h.drv_h [DRIVER] [85] presetn = 1, transfer = 1, READ_WRITE = 0, apb_write_paddr = 001, apb_write_data = 8c, apb_read_paddr = 115
# ---------------------------------DRIVER-------------------
# -----------------------------------------------------------------------------------------
# Name                           Type        Size  Value                                   
# -----------------------------------------------------------------------------------------
# txn                            ApbSeqItem  -     @800                                    
#   apb_write_paddr              integral    9     'h1                                     
#   apb_read_paddr               integral    9     'h115                                   
#   apb_write_data               integral    8     'h8c                                    
#   transfer                     integral    1     'h1                                     
#   READ_WRITE                   integral    1     'h0                                     
#   apb_read_data_out            integral    8     'h0                                     
#   begin_time                   time        64    75                                      
#   depth                        int         32    'd2                                     
#   parent sequence (name)       string      8     write1_h                                
#   parent sequence (full name)  string      40    uvm_test_top.env_h.act_h.seqr_h.write1_h
#   sequencer                    string      31    uvm_test_top.env_h.act_h.seqr_h         
# -----------------------------------------------------------------------------------------
# --------------------------------------DRIVER----------------------------------
# UVM_INFO ApbScoreboard.sv(39) @ 85: uvm_test_top.env_h.scb_h [SB] EXPECTED TRANSACTION: size = 5 | TRANSFER = 1 | RW = 0 | WDATA = 1c | WPADDR = 9 | RPADDR = 0
# ----------------------------------------------INPUT MONITOR-------------------------------------------------------
# --------------------------------------------
# Name                 Type        Size  Value
# --------------------------------------------
# ip_mon_h             ApbSeqItem  -     @701 
#   apb_write_paddr    integral    9     'h9  
#   apb_read_paddr     integral    9     'h0  
#   apb_write_data     integral    8     'h1c 
#   transfer           integral    1     'h1  
#   READ_WRITE         integral    1     'h0  
#   apb_read_data_out  integral    8     'h0  
# --------------------------------------------
# WRITE ADDRESS = 000001001  READ ADDRESS =000000000 
# THE RESET IS 1
# ----------------------------------------------INPUT MONITOR-------------------------------------------------------
# UVM_INFO ApbScoreboard.sv(46) @ 85: uvm_test_top.env_h.scb_h [SB] ACTUAL TRANSACTION: size = 1 | TRANSFER = 1 | RW = 0 | WPADDR = 9 | WDATA = 1c | RDATA = 0 | RPADDR = 0
# ----------------------------------------------OUTPUT MONITOR-------------------------------------------------------
# UVM_INFO ApbOpMonitor.sv(43) @ 85: uvm_test_top.env_h.pass_h.op_mon_h [OUTPUT MONITOR] [85] transfer =1 , READ_WRITE =0, apb_write_paddr =000001001 , apb_write_data =1c , apb_read_paddr =x, apb_read_data=x
# ----------------------------------------------OUTPUT MONITOR-------------------------------------------------------
# FOR COMPARING : WRITE DATA =1c READ DATA OUT =xx
# -------------------------------------------------------------------WRITE--PASS---------------------------------------------------------------------
# UVM_INFO ApbScoreboard.sv(84) @ 85: uvm_test_top.env_h.scb_h [COMPARE] WRITE PASS | EXPECTED WDATA = 1c  ACTUAL WDATA =1c |EXPECTED  WRITE ADDR = 9 ACTUAL WRITE ADDR =9
# WRITE_ADDRESS_VALIDITY: ASSERTION PASS
# TRANSFER_VALIDITY: ASSERTION PASS
# UVM_INFO ApbDriver.sv(63) @ 95: uvm_test_top.env_h.act_h.drv_h [DRIVER] [95] presetn = 1, transfer = 1, READ_WRITE = 0, apb_write_paddr = 001, apb_write_data = 8c, apb_read_paddr = 115
# ---------------------------------DRIVER-------------------
# -----------------------------------------------------------------------------------------
# Name                           Type        Size  Value                                   
# -----------------------------------------------------------------------------------------
# txn                            ApbSeqItem  -     @800                                    
#   apb_write_paddr              integral    9     'h1                                     
#   apb_read_paddr               integral    9     'h115                                   
#   apb_write_data               integral    8     'h8c                                    
#   transfer                     integral    1     'h1                                     
#   READ_WRITE                   integral    1     'h0                                     
#   apb_read_data_out            integral    8     'h0                                     
#   begin_time                   time        64    85                                      
#   end_time                     time        64    85                                      
#   depth                        int         32    'd2                                     
#   parent sequence (name)       string      8     write1_h                                
#   parent sequence (full name)  string      40    uvm_test_top.env_h.act_h.seqr_h.write1_h
#   sequencer                    string      31    uvm_test_top.env_h.act_h.seqr_h         
# -----------------------------------------------------------------------------------------
# --------------------------------------DRIVER----------------------------------
# UVM_INFO ApbScoreboard.sv(39) @ 95: uvm_test_top.env_h.scb_h [SB] EXPECTED TRANSACTION: size = 5 | TRANSFER = 1 | RW = 0 | WDATA = 8c | WPADDR = 1 | RPADDR = 0
# ----------------------------------------------INPUT MONITOR-------------------------------------------------------
# --------------------------------------------
# Name                 Type        Size  Value
# --------------------------------------------
# ip_mon_h             ApbSeqItem  -     @701 
#   apb_write_paddr    integral    9     'h1  
#   apb_read_paddr     integral    9     'h0  
#   apb_write_data     integral    8     'h8c 
#   transfer           integral    1     'h1  
#   READ_WRITE         integral    1     'h0  
#   apb_read_data_out  integral    8     'h0  
# --------------------------------------------
# WRITE ADDRESS = 000000001  READ ADDRESS =000000000 
# THE RESET IS 1
# ----------------------------------------------INPUT MONITOR-------------------------------------------------------
# WRITE ADDRESS == 000000001
# SLAVE 1
# WRITE_ADDRESS_VALIDITY: ASSERTION PASS
# TRANSFER_VALIDITY: ASSERTION PASS
# UVM_INFO ApbDriver.sv(63) @ 105: uvm_test_top.env_h.act_h.drv_h [DRIVER] [105] presetn = 1, transfer = 1, READ_WRITE = 0, apb_write_paddr = 002, apb_write_data = ef, apb_read_paddr = 032
# ---------------------------------DRIVER-------------------
# -----------------------------------------------------------------------------------------
# Name                           Type        Size  Value                                   
# -----------------------------------------------------------------------------------------
# txn                            ApbSeqItem  -     @804                                    
#   apb_write_paddr              integral    9     'h2                                     
#   apb_read_paddr               integral    9     'h32                                    
#   apb_write_data               integral    8     'hef                                    
#   transfer                     integral    1     'h1                                     
#   READ_WRITE                   integral    1     'h0                                     
#   apb_read_data_out            integral    8     'h0                                     
#   begin_time                   time        64    95                                      
#   depth                        int         32    'd2                                     
#   parent sequence (name)       string      8     write1_h                                
#   parent sequence (full name)  string      40    uvm_test_top.env_h.act_h.seqr_h.write1_h
#   sequencer                    string      31    uvm_test_top.env_h.act_h.seqr_h         
# -----------------------------------------------------------------------------------------
# --------------------------------------DRIVER----------------------------------
# UVM_INFO ApbScoreboard.sv(39) @ 105: uvm_test_top.env_h.scb_h [SB] EXPECTED TRANSACTION: size = 6 | TRANSFER = 1 | RW = 0 | WDATA = 8c | WPADDR = 1 | RPADDR = 0
# ----------------------------------------------INPUT MONITOR-------------------------------------------------------
# --------------------------------------------
# Name                 Type        Size  Value
# --------------------------------------------
# ip_mon_h             ApbSeqItem  -     @701 
#   apb_write_paddr    integral    9     'h1  
#   apb_read_paddr     integral    9     'h0  
#   apb_write_data     integral    8     'h8c 
#   transfer           integral    1     'h1  
#   READ_WRITE         integral    1     'h0  
#   apb_read_data_out  integral    8     'h0  
# --------------------------------------------
# WRITE ADDRESS = 000000001  READ ADDRESS =000000000 
# THE RESET IS 1
# ----------------------------------------------INPUT MONITOR-------------------------------------------------------
# UVM_INFO ApbScoreboard.sv(46) @ 105: uvm_test_top.env_h.scb_h [SB] ACTUAL TRANSACTION: size = 1 | TRANSFER = 1 | RW = 0 | WPADDR = 1 | WDATA = 8c | RDATA = 0 | RPADDR = 0
# ----------------------------------------------OUTPUT MONITOR-------------------------------------------------------
# UVM_INFO ApbOpMonitor.sv(43) @ 105: uvm_test_top.env_h.pass_h.op_mon_h [OUTPUT MONITOR] [105] transfer =1 , READ_WRITE =0, apb_write_paddr =000000001 , apb_write_data =8c , apb_read_paddr =x, apb_read_data=x
# ----------------------------------------------OUTPUT MONITOR-------------------------------------------------------
# FOR COMPARING : WRITE DATA =8c READ DATA OUT =xx
# -------------------------------------------------------------------WRITE--PASS---------------------------------------------------------------------
# UVM_INFO ApbScoreboard.sv(84) @ 105: uvm_test_top.env_h.scb_h [COMPARE] WRITE PASS | EXPECTED WDATA = 8c  ACTUAL WDATA =8c |EXPECTED  WRITE ADDR = 1 ACTUAL WRITE ADDR =1
# WRITE_ADDRESS_VALIDITY: ASSERTION PASS
# TRANSFER_VALIDITY: ASSERTION PASS
# UVM_INFO ApbDriver.sv(63) @ 115: uvm_test_top.env_h.act_h.drv_h [DRIVER] [115] presetn = 1, transfer = 1, READ_WRITE = 0, apb_write_paddr = 002, apb_write_data = ef, apb_read_paddr = 032
# ---------------------------------DRIVER-------------------
# -----------------------------------------------------------------------------------------
# Name                           Type        Size  Value                                   
# -----------------------------------------------------------------------------------------
# txn                            ApbSeqItem  -     @804                                    
#   apb_write_paddr              integral    9     'h2                                     
#   apb_read_paddr               integral    9     'h32                                    
#   apb_write_data               integral    8     'hef                                    
#   transfer                     integral    1     'h1                                     
#   READ_WRITE                   integral    1     'h0                                     
#   apb_read_data_out            integral    8     'h0                                     
#   begin_time                   time        64    105                                     
#   end_time                     time        64    105                                     
#   depth                        int         32    'd2                                     
#   parent sequence (name)       string      8     write1_h                                
#   parent sequence (full name)  string      40    uvm_test_top.env_h.act_h.seqr_h.write1_h
#   sequencer                    string      31    uvm_test_top.env_h.act_h.seqr_h         
# -----------------------------------------------------------------------------------------
# --------------------------------------DRIVER----------------------------------
# UVM_INFO ApbScoreboard.sv(39) @ 115: uvm_test_top.env_h.scb_h [SB] EXPECTED TRANSACTION: size = 6 | TRANSFER = 1 | RW = 0 | WDATA = ef | WPADDR = 2 | RPADDR = 0
# ----------------------------------------------INPUT MONITOR-------------------------------------------------------
# --------------------------------------------
# Name                 Type        Size  Value
# --------------------------------------------
# ip_mon_h             ApbSeqItem  -     @701 
#   apb_write_paddr    integral    9     'h2  
#   apb_read_paddr     integral    9     'h0  
#   apb_write_data     integral    8     'hef 
#   transfer           integral    1     'h1  
#   READ_WRITE         integral    1     'h0  
#   apb_read_data_out  integral    8     'h0  
# --------------------------------------------
# WRITE ADDRESS = 000000010  READ ADDRESS =000000000 
# THE RESET IS 1
# ----------------------------------------------INPUT MONITOR-------------------------------------------------------
# WRITE ADDRESS == 000000010
# SLAVE 1
# WRITE_ADDRESS_VALIDITY: ASSERTION PASS
# TRANSFER_VALIDITY: ASSERTION PASS
# UVM_INFO ApbDriver.sv(63) @ 125: uvm_test_top.env_h.act_h.drv_h [DRIVER] [125] presetn = 1, transfer = 1, READ_WRITE = 0, apb_write_paddr = 007, apb_write_data = 35, apb_read_paddr = 170
# ---------------------------------DRIVER-------------------
# -----------------------------------------------------------------------------------------
# Name                           Type        Size  Value                                   
# -----------------------------------------------------------------------------------------
# txn                            ApbSeqItem  -     @808                                    
#   apb_write_paddr              integral    9     'h7                                     
#   apb_read_paddr               integral    9     'h170                                   
#   apb_write_data               integral    8     'h35                                    
#   transfer                     integral    1     'h1                                     
#   READ_WRITE                   integral    1     'h0                                     
#   apb_read_data_out            integral    8     'h0                                     
#   begin_time                   time        64    115                                     
#   depth                        int         32    'd2                                     
#   parent sequence (name)       string      8     write1_h                                
#   parent sequence (full name)  string      40    uvm_test_top.env_h.act_h.seqr_h.write1_h
#   sequencer                    string      31    uvm_test_top.env_h.act_h.seqr_h         
# -----------------------------------------------------------------------------------------
# --------------------------------------DRIVER----------------------------------
# UVM_INFO ApbScoreboard.sv(39) @ 125: uvm_test_top.env_h.scb_h [SB] EXPECTED TRANSACTION: size = 7 | TRANSFER = 1 | RW = 0 | WDATA = ef | WPADDR = 2 | RPADDR = 0
# ----------------------------------------------INPUT MONITOR-------------------------------------------------------
# --------------------------------------------
# Name                 Type        Size  Value
# --------------------------------------------
# ip_mon_h             ApbSeqItem  -     @701 
#   apb_write_paddr    integral    9     'h2  
#   apb_read_paddr     integral    9     'h0  
#   apb_write_data     integral    8     'hef 
#   transfer           integral    1     'h1  
#   READ_WRITE         integral    1     'h0  
#   apb_read_data_out  integral    8     'h0  
# --------------------------------------------
# WRITE ADDRESS = 000000010  READ ADDRESS =000000000 
# THE RESET IS 1
# ----------------------------------------------INPUT MONITOR-------------------------------------------------------
# UVM_INFO ApbScoreboard.sv(46) @ 125: uvm_test_top.env_h.scb_h [SB] ACTUAL TRANSACTION: size = 1 | TRANSFER = 1 | RW = 0 | WPADDR = 2 | WDATA = ef | RDATA = 0 | RPADDR = 0
# ----------------------------------------------OUTPUT MONITOR-------------------------------------------------------
# UVM_INFO ApbOpMonitor.sv(43) @ 125: uvm_test_top.env_h.pass_h.op_mon_h [OUTPUT MONITOR] [125] transfer =1 , READ_WRITE =0, apb_write_paddr =000000010 , apb_write_data =ef , apb_read_paddr =x, apb_read_data=x
# ----------------------------------------------OUTPUT MONITOR-------------------------------------------------------
# FOR COMPARING : WRITE DATA =ef READ DATA OUT =xx
# -------------------------------------------------------------------WRITE--PASS---------------------------------------------------------------------
# UVM_INFO ApbScoreboard.sv(84) @ 125: uvm_test_top.env_h.scb_h [COMPARE] WRITE PASS | EXPECTED WDATA = ef  ACTUAL WDATA =ef |EXPECTED  WRITE ADDR = 2 ACTUAL WRITE ADDR =2
# WRITE_ADDRESS_VALIDITY: ASSERTION PASS
# TRANSFER_VALIDITY: ASSERTION PASS
# UVM_INFO ApbDriver.sv(63) @ 135: uvm_test_top.env_h.act_h.drv_h [DRIVER] [135] presetn = 1, transfer = 1, READ_WRITE = 0, apb_write_paddr = 007, apb_write_data = 35, apb_read_paddr = 170
# ---------------------------------DRIVER-------------------
# -----------------------------------------------------------------------------------------
# Name                           Type        Size  Value                                   
# -----------------------------------------------------------------------------------------
# txn                            ApbSeqItem  -     @808                                    
#   apb_write_paddr              integral    9     'h7                                     
#   apb_read_paddr               integral    9     'h170                                   
#   apb_write_data               integral    8     'h35                                    
#   transfer                     integral    1     'h1                                     
#   READ_WRITE                   integral    1     'h0                                     
#   apb_read_data_out            integral    8     'h0                                     
#   begin_time                   time        64    125                                     
#   end_time                     time        64    125                                     
#   depth                        int         32    'd2                                     
#   parent sequence (name)       string      8     write1_h                                
#   parent sequence (full name)  string      40    uvm_test_top.env_h.act_h.seqr_h.write1_h
#   sequencer                    string      31    uvm_test_top.env_h.act_h.seqr_h         
# -----------------------------------------------------------------------------------------
# --------------------------------------DRIVER----------------------------------
# UVM_INFO ApbScoreboard.sv(39) @ 135: uvm_test_top.env_h.scb_h [SB] EXPECTED TRANSACTION: size = 7 | TRANSFER = 1 | RW = 0 | WDATA = 35 | WPADDR = 7 | RPADDR = 0
# ----------------------------------------------INPUT MONITOR-------------------------------------------------------
# --------------------------------------------
# Name                 Type        Size  Value
# --------------------------------------------
# ip_mon_h             ApbSeqItem  -     @701 
#   apb_write_paddr    integral    9     'h7  
#   apb_read_paddr     integral    9     'h0  
#   apb_write_data     integral    8     'h35 
#   transfer           integral    1     'h1  
#   READ_WRITE         integral    1     'h0  
#   apb_read_data_out  integral    8     'h0  
# --------------------------------------------
# WRITE ADDRESS = 000000111  READ ADDRESS =000000000 
# THE RESET IS 1
# ----------------------------------------------INPUT MONITOR-------------------------------------------------------
# WRITE ADDRESS == 000000111
# SLAVE 1
# WRITE_ADDRESS_VALIDITY: ASSERTION PASS
# TRANSFER_VALIDITY: ASSERTION PASS
# UVM_INFO ApbDriver.sv(63) @ 145: uvm_test_top.env_h.act_h.drv_h [DRIVER] [145] presetn = 1, transfer = 1, READ_WRITE = 0, apb_write_paddr = 007, apb_write_data = aa, apb_read_paddr = 0e5
# ---------------------------------DRIVER-------------------
# -----------------------------------------------------------------------------------------
# Name                           Type        Size  Value                                   
# -----------------------------------------------------------------------------------------
# txn                            ApbSeqItem  -     @812                                    
#   apb_write_paddr              integral    9     'h7                                     
#   apb_read_paddr               integral    9     'he5                                    
#   apb_write_data               integral    8     'haa                                    
#   transfer                     integral    1     'h1                                     
#   READ_WRITE                   integral    1     'h0                                     
#   apb_read_data_out            integral    8     'h0                                     
#   begin_time                   time        64    135                                     
#   depth                        int         32    'd2                                     
#   parent sequence (name)       string      8     write1_h                                
#   parent sequence (full name)  string      40    uvm_test_top.env_h.act_h.seqr_h.write1_h
#   sequencer                    string      31    uvm_test_top.env_h.act_h.seqr_h         
# -----------------------------------------------------------------------------------------
# --------------------------------------DRIVER----------------------------------
# UVM_INFO ApbScoreboard.sv(39) @ 145: uvm_test_top.env_h.scb_h [SB] EXPECTED TRANSACTION: size = 8 | TRANSFER = 1 | RW = 0 | WDATA = 35 | WPADDR = 7 | RPADDR = 0
# ----------------------------------------------INPUT MONITOR-------------------------------------------------------
# --------------------------------------------
# Name                 Type        Size  Value
# --------------------------------------------
# ip_mon_h             ApbSeqItem  -     @701 
#   apb_write_paddr    integral    9     'h7  
#   apb_read_paddr     integral    9     'h0  
#   apb_write_data     integral    8     'h35 
#   transfer           integral    1     'h1  
#   READ_WRITE         integral    1     'h0  
#   apb_read_data_out  integral    8     'h0  
# --------------------------------------------
# WRITE ADDRESS = 000000111  READ ADDRESS =000000000 
# THE RESET IS 1
# ----------------------------------------------INPUT MONITOR-------------------------------------------------------
# UVM_INFO ApbScoreboard.sv(46) @ 145: uvm_test_top.env_h.scb_h [SB] ACTUAL TRANSACTION: size = 1 | TRANSFER = 1 | RW = 0 | WPADDR = 7 | WDATA = 35 | RDATA = 0 | RPADDR = 0
# ----------------------------------------------OUTPUT MONITOR-------------------------------------------------------
# UVM_INFO ApbOpMonitor.sv(43) @ 145: uvm_test_top.env_h.pass_h.op_mon_h [OUTPUT MONITOR] [145] transfer =1 , READ_WRITE =0, apb_write_paddr =000000111 , apb_write_data =35 , apb_read_paddr =x, apb_read_data=x
# ----------------------------------------------OUTPUT MONITOR-------------------------------------------------------
# FOR COMPARING : WRITE DATA =35 READ DATA OUT =xx
# -------------------------------------------------------------------WRITE--PASS---------------------------------------------------------------------
# UVM_INFO ApbScoreboard.sv(84) @ 145: uvm_test_top.env_h.scb_h [COMPARE] WRITE PASS | EXPECTED WDATA = 35  ACTUAL WDATA =35 |EXPECTED  WRITE ADDR = 7 ACTUAL WRITE ADDR =7
# WRITE_ADDRESS_VALIDITY: ASSERTION PASS
# TRANSFER_VALIDITY: ASSERTION PASS
# UVM_INFO ApbDriver.sv(63) @ 155: uvm_test_top.env_h.act_h.drv_h [DRIVER] [155] presetn = 1, transfer = 1, READ_WRITE = 0, apb_write_paddr = 007, apb_write_data = aa, apb_read_paddr = 0e5
# ---------------------------------DRIVER-------------------
# -----------------------------------------------------------------------------------------
# Name                           Type        Size  Value                                   
# -----------------------------------------------------------------------------------------
# txn                            ApbSeqItem  -     @812                                    
#   apb_write_paddr              integral    9     'h7                                     
#   apb_read_paddr               integral    9     'he5                                    
#   apb_write_data               integral    8     'haa                                    
#   transfer                     integral    1     'h1                                     
#   READ_WRITE                   integral    1     'h0                                     
#   apb_read_data_out            integral    8     'h0                                     
#   begin_time                   time        64    145                                     
#   end_time                     time        64    145                                     
#   depth                        int         32    'd2                                     
#   parent sequence (name)       string      8     write1_h                                
#   parent sequence (full name)  string      40    uvm_test_top.env_h.act_h.seqr_h.write1_h
#   sequencer                    string      31    uvm_test_top.env_h.act_h.seqr_h         
# -----------------------------------------------------------------------------------------
# --------------------------------------DRIVER----------------------------------
# UVM_INFO ApbScoreboard.sv(39) @ 155: uvm_test_top.env_h.scb_h [SB] EXPECTED TRANSACTION: size = 8 | TRANSFER = 1 | RW = 0 | WDATA = aa | WPADDR = 7 | RPADDR = 0
# ----------------------------------------------INPUT MONITOR-------------------------------------------------------
# --------------------------------------------
# Name                 Type        Size  Value
# --------------------------------------------
# ip_mon_h             ApbSeqItem  -     @701 
#   apb_write_paddr    integral    9     'h7  
#   apb_read_paddr     integral    9     'h0  
#   apb_write_data     integral    8     'haa 
#   transfer           integral    1     'h1  
#   READ_WRITE         integral    1     'h0  
#   apb_read_data_out  integral    8     'h0  
# --------------------------------------------
# WRITE ADDRESS = 000000111  READ ADDRESS =000000000 
# THE RESET IS 1
# ----------------------------------------------INPUT MONITOR-------------------------------------------------------
# WRITE ADDRESS == 000000111
# SLAVE 1
# WRITE_ADDRESS_VALIDITY: ASSERTION PASS
# TRANSFER_VALIDITY: ASSERTION PASS
# UVM_INFO ApbDriver.sv(63) @ 165: uvm_test_top.env_h.act_h.drv_h [DRIVER] [165] presetn = 1, transfer = 1, READ_WRITE = 0, apb_write_paddr = 002, apb_write_data = 28, apb_read_paddr = 1b2
# ---------------------------------DRIVER-------------------
# -----------------------------------------------------------------------------------------
# Name                           Type        Size  Value                                   
# -----------------------------------------------------------------------------------------
# txn                            ApbSeqItem  -     @816                                    
#   apb_write_paddr              integral    9     'h2                                     
#   apb_read_paddr               integral    9     'h1b2                                   
#   apb_write_data               integral    8     'h28                                    
#   transfer                     integral    1     'h1                                     
#   READ_WRITE                   integral    1     'h0                                     
#   apb_read_data_out            integral    8     'h0                                     
#   begin_time                   time        64    155                                     
#   depth                        int         32    'd2                                     
#   parent sequence (name)       string      8     write1_h                                
#   parent sequence (full name)  string      40    uvm_test_top.env_h.act_h.seqr_h.write1_h
#   sequencer                    string      31    uvm_test_top.env_h.act_h.seqr_h         
# -----------------------------------------------------------------------------------------
# --------------------------------------DRIVER----------------------------------
# UVM_INFO ApbScoreboard.sv(39) @ 165: uvm_test_top.env_h.scb_h [SB] EXPECTED TRANSACTION: size = 9 | TRANSFER = 1 | RW = 0 | WDATA = aa | WPADDR = 7 | RPADDR = 0
# ----------------------------------------------INPUT MONITOR-------------------------------------------------------
# --------------------------------------------
# Name                 Type        Size  Value
# --------------------------------------------
# ip_mon_h             ApbSeqItem  -     @701 
#   apb_write_paddr    integral    9     'h7  
#   apb_read_paddr     integral    9     'h0  
#   apb_write_data     integral    8     'haa 
#   transfer           integral    1     'h1  
#   READ_WRITE         integral    1     'h0  
#   apb_read_data_out  integral    8     'h0  
# --------------------------------------------
# WRITE ADDRESS = 000000111  READ ADDRESS =000000000 
# THE RESET IS 1
# ----------------------------------------------INPUT MONITOR-------------------------------------------------------
# UVM_INFO ApbScoreboard.sv(46) @ 165: uvm_test_top.env_h.scb_h [SB] ACTUAL TRANSACTION: size = 1 | TRANSFER = 1 | RW = 0 | WPADDR = 7 | WDATA = aa | RDATA = 0 | RPADDR = 0
# ----------------------------------------------OUTPUT MONITOR-------------------------------------------------------
# UVM_INFO ApbOpMonitor.sv(43) @ 165: uvm_test_top.env_h.pass_h.op_mon_h [OUTPUT MONITOR] [165] transfer =1 , READ_WRITE =0, apb_write_paddr =000000111 , apb_write_data =aa , apb_read_paddr =x, apb_read_data=x
# ----------------------------------------------OUTPUT MONITOR-------------------------------------------------------
# FOR COMPARING : WRITE DATA =aa READ DATA OUT =xx
# -------------------------------------------------------------------WRITE--PASS---------------------------------------------------------------------
# UVM_INFO ApbScoreboard.sv(84) @ 165: uvm_test_top.env_h.scb_h [COMPARE] WRITE PASS | EXPECTED WDATA = aa  ACTUAL WDATA =aa |EXPECTED  WRITE ADDR = 7 ACTUAL WRITE ADDR =7
# WRITE_ADDRESS_VALIDITY: ASSERTION PASS
# TRANSFER_VALIDITY: ASSERTION PASS
# UVM_INFO ApbDriver.sv(63) @ 175: uvm_test_top.env_h.act_h.drv_h [DRIVER] [175] presetn = 1, transfer = 1, READ_WRITE = 0, apb_write_paddr = 002, apb_write_data = 28, apb_read_paddr = 1b2
# ---------------------------------DRIVER-------------------
# -----------------------------------------------------------------------------------------
# Name                           Type        Size  Value                                   
# -----------------------------------------------------------------------------------------
# txn                            ApbSeqItem  -     @816                                    
#   apb_write_paddr              integral    9     'h2                                     
#   apb_read_paddr               integral    9     'h1b2                                   
#   apb_write_data               integral    8     'h28                                    
#   transfer                     integral    1     'h1                                     
#   READ_WRITE                   integral    1     'h0                                     
#   apb_read_data_out            integral    8     'h0                                     
#   begin_time                   time        64    165                                     
#   end_time                     time        64    165                                     
#   depth                        int         32    'd2                                     
#   parent sequence (name)       string      8     write1_h                                
#   parent sequence (full name)  string      40    uvm_test_top.env_h.act_h.seqr_h.write1_h
#   sequencer                    string      31    uvm_test_top.env_h.act_h.seqr_h         
# -----------------------------------------------------------------------------------------
# --------------------------------------DRIVER----------------------------------
# UVM_INFO ApbScoreboard.sv(39) @ 175: uvm_test_top.env_h.scb_h [SB] EXPECTED TRANSACTION: size = 9 | TRANSFER = 1 | RW = 0 | WDATA = 28 | WPADDR = 2 | RPADDR = 0
# ----------------------------------------------INPUT MONITOR-------------------------------------------------------
# --------------------------------------------
# Name                 Type        Size  Value
# --------------------------------------------
# ip_mon_h             ApbSeqItem  -     @701 
#   apb_write_paddr    integral    9     'h2  
#   apb_read_paddr     integral    9     'h0  
#   apb_write_data     integral    8     'h28 
#   transfer           integral    1     'h1  
#   READ_WRITE         integral    1     'h0  
#   apb_read_data_out  integral    8     'h0  
# --------------------------------------------
# WRITE ADDRESS = 000000010  READ ADDRESS =000000000 
# THE RESET IS 1
# ----------------------------------------------INPUT MONITOR-------------------------------------------------------
# WRITE ADDRESS == 000000010
# SLAVE 1
# WRITE_ADDRESS_VALIDITY: ASSERTION PASS
# TRANSFER_VALIDITY: ASSERTION PASS
# UVM_INFO ApbDriver.sv(63) @ 185: uvm_test_top.env_h.act_h.drv_h [DRIVER] [185] presetn = 1, transfer = 1, READ_WRITE = 0, apb_write_paddr = 002, apb_write_data = d9, apb_read_paddr = 10c
# ---------------------------------DRIVER-------------------
# -----------------------------------------------------------------------------------------
# Name                           Type        Size  Value                                   
# -----------------------------------------------------------------------------------------
# txn                            ApbSeqItem  -     @820                                    
#   apb_write_paddr              integral    9     'h2                                     
#   apb_read_paddr               integral    9     'h10c                                   
#   apb_write_data               integral    8     'hd9                                    
#   transfer                     integral    1     'h1                                     
#   READ_WRITE                   integral    1     'h0                                     
#   apb_read_data_out            integral    8     'h0                                     
#   begin_time                   time        64    175                                     
#   depth                        int         32    'd2                                     
#   parent sequence (name)       string      8     write1_h                                
#   parent sequence (full name)  string      40    uvm_test_top.env_h.act_h.seqr_h.write1_h
#   sequencer                    string      31    uvm_test_top.env_h.act_h.seqr_h         
# -----------------------------------------------------------------------------------------
# --------------------------------------DRIVER----------------------------------
# UVM_INFO ApbScoreboard.sv(39) @ 185: uvm_test_top.env_h.scb_h [SB] EXPECTED TRANSACTION: size = 10 | TRANSFER = 1 | RW = 0 | WDATA = 28 | WPADDR = 2 | RPADDR = 0
# ----------------------------------------------INPUT MONITOR-------------------------------------------------------
# --------------------------------------------
# Name                 Type        Size  Value
# --------------------------------------------
# ip_mon_h             ApbSeqItem  -     @701 
#   apb_write_paddr    integral    9     'h2  
#   apb_read_paddr     integral    9     'h0  
#   apb_write_data     integral    8     'h28 
#   transfer           integral    1     'h1  
#   READ_WRITE         integral    1     'h0  
#   apb_read_data_out  integral    8     'h0  
# --------------------------------------------
# WRITE ADDRESS = 000000010  READ ADDRESS =000000000 
# THE RESET IS 1
# ----------------------------------------------INPUT MONITOR-------------------------------------------------------
# UVM_INFO ApbScoreboard.sv(46) @ 185: uvm_test_top.env_h.scb_h [SB] ACTUAL TRANSACTION: size = 1 | TRANSFER = 1 | RW = 0 | WPADDR = 2 | WDATA = 28 | RDATA = 0 | RPADDR = 0
# ----------------------------------------------OUTPUT MONITOR-------------------------------------------------------
# UVM_INFO ApbOpMonitor.sv(43) @ 185: uvm_test_top.env_h.pass_h.op_mon_h [OUTPUT MONITOR] [185] transfer =1 , READ_WRITE =0, apb_write_paddr =000000010 , apb_write_data =28 , apb_read_paddr =x, apb_read_data=x
# ----------------------------------------------OUTPUT MONITOR-------------------------------------------------------
# FOR COMPARING : WRITE DATA =28 READ DATA OUT =xx
# -------------------------------------------------------------------WRITE--PASS---------------------------------------------------------------------
# UVM_INFO ApbScoreboard.sv(84) @ 185: uvm_test_top.env_h.scb_h [COMPARE] WRITE PASS | EXPECTED WDATA = 28  ACTUAL WDATA =28 |EXPECTED  WRITE ADDR = 2 ACTUAL WRITE ADDR =2
# WRITE_ADDRESS_VALIDITY: ASSERTION PASS
# TRANSFER_VALIDITY: ASSERTION PASS
# UVM_INFO ApbDriver.sv(63) @ 195: uvm_test_top.env_h.act_h.drv_h [DRIVER] [195] presetn = 1, transfer = 1, READ_WRITE = 0, apb_write_paddr = 002, apb_write_data = d9, apb_read_paddr = 10c
# ---------------------------------DRIVER-------------------
# -----------------------------------------------------------------------------------------
# Name                           Type        Size  Value                                   
# -----------------------------------------------------------------------------------------
# txn                            ApbSeqItem  -     @820                                    
#   apb_write_paddr              integral    9     'h2                                     
#   apb_read_paddr               integral    9     'h10c                                   
#   apb_write_data               integral    8     'hd9                                    
#   transfer                     integral    1     'h1                                     
#   READ_WRITE                   integral    1     'h0                                     
#   apb_read_data_out            integral    8     'h0                                     
#   begin_time                   time        64    185                                     
#   end_time                     time        64    185                                     
#   depth                        int         32    'd2                                     
#   parent sequence (name)       string      8     write1_h                                
#   parent sequence (full name)  string      40    uvm_test_top.env_h.act_h.seqr_h.write1_h
#   sequencer                    string      31    uvm_test_top.env_h.act_h.seqr_h         
# -----------------------------------------------------------------------------------------
# --------------------------------------DRIVER----------------------------------
# UVM_INFO ApbScoreboard.sv(39) @ 195: uvm_test_top.env_h.scb_h [SB] EXPECTED TRANSACTION: size = 10 | TRANSFER = 1 | RW = 0 | WDATA = d9 | WPADDR = 2 | RPADDR = 0
# ----------------------------------------------INPUT MONITOR-------------------------------------------------------
# --------------------------------------------
# Name                 Type        Size  Value
# --------------------------------------------
# ip_mon_h             ApbSeqItem  -     @701 
#   apb_write_paddr    integral    9     'h2  
#   apb_read_paddr     integral    9     'h0  
#   apb_write_data     integral    8     'hd9 
#   transfer           integral    1     'h1  
#   READ_WRITE         integral    1     'h0  
#   apb_read_data_out  integral    8     'h0  
# --------------------------------------------
# WRITE ADDRESS = 000000010  READ ADDRESS =000000000 
# THE RESET IS 1
# ----------------------------------------------INPUT MONITOR-------------------------------------------------------
# WRITE ADDRESS == 000000010
# SLAVE 1
# WRITE_ADDRESS_VALIDITY: ASSERTION PASS
# TRANSFER_VALIDITY: ASSERTION PASS
# UVM_INFO ApbDriver.sv(63) @ 205: uvm_test_top.env_h.act_h.drv_h [DRIVER] [205] presetn = 1, transfer = 1, READ_WRITE = 0, apb_write_paddr = 002, apb_write_data = 1d, apb_read_paddr = 185
# ---------------------------------DRIVER-------------------
# -----------------------------------------------------------------------------------------
# Name                           Type        Size  Value                                   
# -----------------------------------------------------------------------------------------
# txn                            ApbSeqItem  -     @824                                    
#   apb_write_paddr              integral    9     'h2                                     
#   apb_read_paddr               integral    9     'h185                                   
#   apb_write_data               integral    8     'h1d                                    
#   transfer                     integral    1     'h1                                     
#   READ_WRITE                   integral    1     'h0                                     
#   apb_read_data_out            integral    8     'h0                                     
#   begin_time                   time        64    195                                     
#   depth                        int         32    'd2                                     
#   parent sequence (name)       string      8     write1_h                                
#   parent sequence (full name)  string      40    uvm_test_top.env_h.act_h.seqr_h.write1_h
#   sequencer                    string      31    uvm_test_top.env_h.act_h.seqr_h         
# -----------------------------------------------------------------------------------------
# --------------------------------------DRIVER----------------------------------
# UVM_INFO ApbScoreboard.sv(39) @ 205: uvm_test_top.env_h.scb_h [SB] EXPECTED TRANSACTION: size = 11 | TRANSFER = 1 | RW = 0 | WDATA = d9 | WPADDR = 2 | RPADDR = 0
# ----------------------------------------------INPUT MONITOR-------------------------------------------------------
# --------------------------------------------
# Name                 Type        Size  Value
# --------------------------------------------
# ip_mon_h             ApbSeqItem  -     @701 
#   apb_write_paddr    integral    9     'h2  
#   apb_read_paddr     integral    9     'h0  
#   apb_write_data     integral    8     'hd9 
#   transfer           integral    1     'h1  
#   READ_WRITE         integral    1     'h0  
#   apb_read_data_out  integral    8     'h0  
# --------------------------------------------
# WRITE ADDRESS = 000000010  READ ADDRESS =000000000 
# THE RESET IS 1
# ----------------------------------------------INPUT MONITOR-------------------------------------------------------
# UVM_INFO ApbScoreboard.sv(46) @ 205: uvm_test_top.env_h.scb_h [SB] ACTUAL TRANSACTION: size = 1 | TRANSFER = 1 | RW = 0 | WPADDR = 2 | WDATA = d9 | RDATA = 0 | RPADDR = 0
# ----------------------------------------------OUTPUT MONITOR-------------------------------------------------------
# UVM_INFO ApbOpMonitor.sv(43) @ 205: uvm_test_top.env_h.pass_h.op_mon_h [OUTPUT MONITOR] [205] transfer =1 , READ_WRITE =0, apb_write_paddr =000000010 , apb_write_data =d9 , apb_read_paddr =x, apb_read_data=x
# ----------------------------------------------OUTPUT MONITOR-------------------------------------------------------
# FOR COMPARING : WRITE DATA =d9 READ DATA OUT =xx
# -------------------------------------------------------------------WRITE--PASS---------------------------------------------------------------------
# UVM_INFO ApbScoreboard.sv(84) @ 205: uvm_test_top.env_h.scb_h [COMPARE] WRITE PASS | EXPECTED WDATA = d9  ACTUAL WDATA =d9 |EXPECTED  WRITE ADDR = 2 ACTUAL WRITE ADDR =2
# WRITE_ADDRESS_VALIDITY: ASSERTION PASS
# TRANSFER_VALIDITY: ASSERTION PASS
# UVM_INFO ApbDriver.sv(63) @ 215: uvm_test_top.env_h.act_h.drv_h [DRIVER] [215] presetn = 1, transfer = 1, READ_WRITE = 0, apb_write_paddr = 002, apb_write_data = 1d, apb_read_paddr = 185
# ---------------------------------DRIVER-------------------
# -----------------------------------------------------------------------------------------
# Name                           Type        Size  Value                                   
# -----------------------------------------------------------------------------------------
# txn                            ApbSeqItem  -     @824                                    
#   apb_write_paddr              integral    9     'h2                                     
#   apb_read_paddr               integral    9     'h185                                   
#   apb_write_data               integral    8     'h1d                                    
#   transfer                     integral    1     'h1                                     
#   READ_WRITE                   integral    1     'h0                                     
#   apb_read_data_out            integral    8     'h0                                     
#   begin_time                   time        64    205                                     
#   end_time                     time        64    205                                     
#   depth                        int         32    'd2                                     
#   parent sequence (name)       string      8     write1_h                                
#   parent sequence (full name)  string      40    uvm_test_top.env_h.act_h.seqr_h.write1_h
#   sequencer                    string      31    uvm_test_top.env_h.act_h.seqr_h         
# -----------------------------------------------------------------------------------------
# --------------------------------------DRIVER----------------------------------
# UVM_INFO ApbScoreboard.sv(39) @ 215: uvm_test_top.env_h.scb_h [SB] EXPECTED TRANSACTION: size = 11 | TRANSFER = 1 | RW = 0 | WDATA = 1d | WPADDR = 2 | RPADDR = 0
# ----------------------------------------------INPUT MONITOR-------------------------------------------------------
# --------------------------------------------
# Name                 Type        Size  Value
# --------------------------------------------
# ip_mon_h             ApbSeqItem  -     @701 
#   apb_write_paddr    integral    9     'h2  
#   apb_read_paddr     integral    9     'h0  
#   apb_write_data     integral    8     'h1d 
#   transfer           integral    1     'h1  
#   READ_WRITE         integral    1     'h0  
#   apb_read_data_out  integral    8     'h0  
# --------------------------------------------
# WRITE ADDRESS = 000000010  READ ADDRESS =000000000 
# THE RESET IS 1
# ----------------------------------------------INPUT MONITOR-------------------------------------------------------
# WRITE ADDRESS == 000000010
# SLAVE 1
# WRITE_ADDRESS_VALIDITY: ASSERTION PASS
# TRANSFER_VALIDITY: ASSERTION PASS
# UVM_INFO ApbDriver.sv(63) @ 225: uvm_test_top.env_h.act_h.drv_h [DRIVER] [225] presetn = 1, transfer = 1, READ_WRITE = 0, apb_write_paddr = 10e, apb_write_data = 51, apb_read_paddr = 1b2
# ---------------------------------DRIVER-------------------
# -----------------------------------------------------------------------------------------
# Name                           Type        Size  Value                                   
# -----------------------------------------------------------------------------------------
# txn                            ApbSeqItem  -     @836                                    
#   apb_write_paddr              integral    9     'h10e                                   
#   apb_read_paddr               integral    9     'h1b2                                   
#   apb_write_data               integral    8     'h51                                    
#   transfer                     integral    1     'h1                                     
#   READ_WRITE                   integral    1     'h0                                     
#   apb_read_data_out            integral    8     'h0                                     
#   begin_time                   time        64    215                                     
#   depth                        int         32    'd2                                     
#   parent sequence (name)       string      8     write2_h                                
#   parent sequence (full name)  string      40    uvm_test_top.env_h.act_h.seqr_h.write2_h
#   sequencer                    string      31    uvm_test_top.env_h.act_h.seqr_h         
# -----------------------------------------------------------------------------------------
# --------------------------------------DRIVER----------------------------------
# UVM_INFO ApbScoreboard.sv(39) @ 225: uvm_test_top.env_h.scb_h [SB] EXPECTED TRANSACTION: size = 12 | TRANSFER = 1 | RW = 0 | WDATA = 1d | WPADDR = 2 | RPADDR = 0
# ----------------------------------------------INPUT MONITOR-------------------------------------------------------
# --------------------------------------------
# Name                 Type        Size  Value
# --------------------------------------------
# ip_mon_h             ApbSeqItem  -     @701 
#   apb_write_paddr    integral    9     'h2  
#   apb_read_paddr     integral    9     'h0  
#   apb_write_data     integral    8     'h1d 
#   transfer           integral    1     'h1  
#   READ_WRITE         integral    1     'h0  
#   apb_read_data_out  integral    8     'h0  
# --------------------------------------------
# WRITE ADDRESS = 000000010  READ ADDRESS =000000000 
# THE RESET IS 1
# ----------------------------------------------INPUT MONITOR-------------------------------------------------------
# UVM_INFO ApbScoreboard.sv(46) @ 225: uvm_test_top.env_h.scb_h [SB] ACTUAL TRANSACTION: size = 1 | TRANSFER = 1 | RW = 0 | WPADDR = 2 | WDATA = 1d | RDATA = 0 | RPADDR = 0
# ----------------------------------------------OUTPUT MONITOR-------------------------------------------------------
# UVM_INFO ApbOpMonitor.sv(43) @ 225: uvm_test_top.env_h.pass_h.op_mon_h [OUTPUT MONITOR] [225] transfer =1 , READ_WRITE =0, apb_write_paddr =000000010 , apb_write_data =1d , apb_read_paddr =x, apb_read_data=x
# ----------------------------------------------OUTPUT MONITOR-------------------------------------------------------
# FOR COMPARING : WRITE DATA =1d READ DATA OUT =xx
# -------------------------------------------------------------------WRITE--PASS---------------------------------------------------------------------
# UVM_INFO ApbScoreboard.sv(84) @ 225: uvm_test_top.env_h.scb_h [COMPARE] WRITE PASS | EXPECTED WDATA = 1d  ACTUAL WDATA =1d |EXPECTED  WRITE ADDR = 2 ACTUAL WRITE ADDR =2
# WRITE_ADDRESS_VALIDITY: ASSERTION PASS
# TRANSFER_VALIDITY: ASSERTION PASS
# UVM_INFO ApbDriver.sv(63) @ 235: uvm_test_top.env_h.act_h.drv_h [DRIVER] [235] presetn = 1, transfer = 1, READ_WRITE = 0, apb_write_paddr = 10e, apb_write_data = 51, apb_read_paddr = 1b2
# ---------------------------------DRIVER-------------------
# -----------------------------------------------------------------------------------------
# Name                           Type        Size  Value                                   
# -----------------------------------------------------------------------------------------
# txn                            ApbSeqItem  -     @836                                    
#   apb_write_paddr              integral    9     'h10e                                   
#   apb_read_paddr               integral    9     'h1b2                                   
#   apb_write_data               integral    8     'h51                                    
#   transfer                     integral    1     'h1                                     
#   READ_WRITE                   integral    1     'h0                                     
#   apb_read_data_out            integral    8     'h0                                     
#   begin_time                   time        64    225                                     
#   end_time                     time        64    225                                     
#   depth                        int         32    'd2                                     
#   parent sequence (name)       string      8     write2_h                                
#   parent sequence (full name)  string      40    uvm_test_top.env_h.act_h.seqr_h.write2_h
#   sequencer                    string      31    uvm_test_top.env_h.act_h.seqr_h         
# -----------------------------------------------------------------------------------------
# --------------------------------------DRIVER----------------------------------
# UVM_INFO ApbScoreboard.sv(39) @ 235: uvm_test_top.env_h.scb_h [SB] EXPECTED TRANSACTION: size = 12 | TRANSFER = 1 | RW = 0 | WDATA = 51 | WPADDR = 10e | RPADDR = 0
# ----------------------------------------------INPUT MONITOR-------------------------------------------------------
# --------------------------------------------
# Name                 Type        Size  Value
# --------------------------------------------
# ip_mon_h             ApbSeqItem  -     @701 
#   apb_write_paddr    integral    9     'h10e
#   apb_read_paddr     integral    9     'h0  
#   apb_write_data     integral    8     'h51 
#   transfer           integral    1     'h1  
#   READ_WRITE         integral    1     'h0  
#   apb_read_data_out  integral    8     'h0  
# --------------------------------------------
# WRITE ADDRESS = 100001110  READ ADDRESS =000000000 
# THE RESET IS 1
# ----------------------------------------------INPUT MONITOR-------------------------------------------------------
# WRITE ADDRESS == 100001110
# SLAVE 2 
# WRITE_ADDRESS_VALIDITY: ASSERTION PASS
# TRANSFER_VALIDITY: ASSERTION PASS
# UVM_INFO ApbDriver.sv(63) @ 245: uvm_test_top.env_h.act_h.drv_h [DRIVER] [245] presetn = 1, transfer = 1, READ_WRITE = 0, apb_write_paddr = 120, apb_write_data = bb, apb_read_paddr = 0a4
# ---------------------------------DRIVER-------------------
# -----------------------------------------------------------------------------------------
# Name                           Type        Size  Value                                   
# -----------------------------------------------------------------------------------------
# txn                            ApbSeqItem  -     @840                                    
#   apb_write_paddr              integral    9     'h120                                   
#   apb_read_paddr               integral    9     'ha4                                    
#   apb_write_data               integral    8     'hbb                                    
#   transfer                     integral    1     'h1                                     
#   READ_WRITE                   integral    1     'h0                                     
#   apb_read_data_out            integral    8     'h0                                     
#   begin_time                   time        64    235                                     
#   depth                        int         32    'd2                                     
#   parent sequence (name)       string      8     write2_h                                
#   parent sequence (full name)  string      40    uvm_test_top.env_h.act_h.seqr_h.write2_h
#   sequencer                    string      31    uvm_test_top.env_h.act_h.seqr_h         
# -----------------------------------------------------------------------------------------
# --------------------------------------DRIVER----------------------------------
# UVM_INFO ApbScoreboard.sv(39) @ 245: uvm_test_top.env_h.scb_h [SB] EXPECTED TRANSACTION: size = 13 | TRANSFER = 1 | RW = 0 | WDATA = 51 | WPADDR = 10e | RPADDR = 0
# ----------------------------------------------INPUT MONITOR-------------------------------------------------------
# --------------------------------------------
# Name                 Type        Size  Value
# --------------------------------------------
# ip_mon_h             ApbSeqItem  -     @701 
#   apb_write_paddr    integral    9     'h10e
#   apb_read_paddr     integral    9     'h0  
#   apb_write_data     integral    8     'h51 
#   transfer           integral    1     'h1  
#   READ_WRITE         integral    1     'h0  
#   apb_read_data_out  integral    8     'h0  
# --------------------------------------------
# WRITE ADDRESS = 100001110  READ ADDRESS =000000000 
# THE RESET IS 1
# ----------------------------------------------INPUT MONITOR-------------------------------------------------------
# UVM_INFO ApbScoreboard.sv(46) @ 245: uvm_test_top.env_h.scb_h [SB] ACTUAL TRANSACTION: size = 1 | TRANSFER = 1 | RW = 0 | WPADDR = 10e | WDATA = 51 | RDATA = 0 | RPADDR = 0
# ----------------------------------------------OUTPUT MONITOR-------------------------------------------------------
# UVM_INFO ApbOpMonitor.sv(43) @ 245: uvm_test_top.env_h.pass_h.op_mon_h [OUTPUT MONITOR] [245] transfer =1 , READ_WRITE =0, apb_write_paddr =100001110 , apb_write_data =51 , apb_read_paddr =x, apb_read_data=x
# ----------------------------------------------OUTPUT MONITOR-------------------------------------------------------
# FOR COMPARING : WRITE DATA =51 READ DATA OUT =xx
# -------------------------------------------------------------------WRITE--PASS---------------------------------------------------------------------
# UVM_INFO ApbScoreboard.sv(84) @ 245: uvm_test_top.env_h.scb_h [COMPARE] WRITE PASS | EXPECTED WDATA = 51  ACTUAL WDATA =51 |EXPECTED  WRITE ADDR = 10e ACTUAL WRITE ADDR =10e
# WRITE_ADDRESS_VALIDITY: ASSERTION PASS
# TRANSFER_VALIDITY: ASSERTION PASS
# UVM_INFO ApbDriver.sv(63) @ 255: uvm_test_top.env_h.act_h.drv_h [DRIVER] [255] presetn = 1, transfer = 1, READ_WRITE = 0, apb_write_paddr = 120, apb_write_data = bb, apb_read_paddr = 0a4
# ---------------------------------DRIVER-------------------
# -----------------------------------------------------------------------------------------
# Name                           Type        Size  Value                                   
# -----------------------------------------------------------------------------------------
# txn                            ApbSeqItem  -     @840                                    
#   apb_write_paddr              integral    9     'h120                                   
#   apb_read_paddr               integral    9     'ha4                                    
#   apb_write_data               integral    8     'hbb                                    
#   transfer                     integral    1     'h1                                     
#   READ_WRITE                   integral    1     'h0                                     
#   apb_read_data_out            integral    8     'h0                                     
#   begin_time                   time        64    245                                     
#   end_time                     time        64    245                                     
#   depth                        int         32    'd2                                     
#   parent sequence (name)       string      8     write2_h                                
#   parent sequence (full name)  string      40    uvm_test_top.env_h.act_h.seqr_h.write2_h
#   sequencer                    string      31    uvm_test_top.env_h.act_h.seqr_h         
# -----------------------------------------------------------------------------------------
# --------------------------------------DRIVER----------------------------------
# UVM_INFO ApbScoreboard.sv(39) @ 255: uvm_test_top.env_h.scb_h [SB] EXPECTED TRANSACTION: size = 13 | TRANSFER = 1 | RW = 0 | WDATA = bb | WPADDR = 120 | RPADDR = 0
# ----------------------------------------------INPUT MONITOR-------------------------------------------------------
# --------------------------------------------
# Name                 Type        Size  Value
# --------------------------------------------
# ip_mon_h             ApbSeqItem  -     @701 
#   apb_write_paddr    integral    9     'h120
#   apb_read_paddr     integral    9     'h0  
#   apb_write_data     integral    8     'hbb 
#   transfer           integral    1     'h1  
#   READ_WRITE         integral    1     'h0  
#   apb_read_data_out  integral    8     'h0  
# --------------------------------------------
# WRITE ADDRESS = 100100000  READ ADDRESS =000000000 
# THE RESET IS 1
# ----------------------------------------------INPUT MONITOR-------------------------------------------------------
# WRITE ADDRESS == 100100000
# SLAVE 2 
# WRITE_ADDRESS_VALIDITY: ASSERTION PASS
# TRANSFER_VALIDITY: ASSERTION PASS
# UVM_INFO ApbDriver.sv(63) @ 265: uvm_test_top.env_h.act_h.drv_h [DRIVER] [265] presetn = 1, transfer = 1, READ_WRITE = 0, apb_write_paddr = 138, apb_write_data = 41, apb_read_paddr = 1b6
# ---------------------------------DRIVER-------------------
# -----------------------------------------------------------------------------------------
# Name                           Type        Size  Value                                   
# -----------------------------------------------------------------------------------------
# txn                            ApbSeqItem  -     @844                                    
#   apb_write_paddr              integral    9     'h138                                   
#   apb_read_paddr               integral    9     'h1b6                                   
#   apb_write_data               integral    8     'h41                                    
#   transfer                     integral    1     'h1                                     
#   READ_WRITE                   integral    1     'h0                                     
#   apb_read_data_out            integral    8     'h0                                     
#   begin_time                   time        64    255                                     
#   depth                        int         32    'd2                                     
#   parent sequence (name)       string      8     write2_h                                
#   parent sequence (full name)  string      40    uvm_test_top.env_h.act_h.seqr_h.write2_h
#   sequencer                    string      31    uvm_test_top.env_h.act_h.seqr_h         
# -----------------------------------------------------------------------------------------
# --------------------------------------DRIVER----------------------------------
# UVM_INFO ApbScoreboard.sv(39) @ 265: uvm_test_top.env_h.scb_h [SB] EXPECTED TRANSACTION: size = 14 | TRANSFER = 1 | RW = 0 | WDATA = bb | WPADDR = 120 | RPADDR = 0
# ----------------------------------------------INPUT MONITOR-------------------------------------------------------
# --------------------------------------------
# Name                 Type        Size  Value
# --------------------------------------------
# ip_mon_h             ApbSeqItem  -     @701 
#   apb_write_paddr    integral    9     'h120
#   apb_read_paddr     integral    9     'h0  
#   apb_write_data     integral    8     'hbb 
#   transfer           integral    1     'h1  
#   READ_WRITE         integral    1     'h0  
#   apb_read_data_out  integral    8     'h0  
# --------------------------------------------
# WRITE ADDRESS = 100100000  READ ADDRESS =000000000 
# THE RESET IS 1
# ----------------------------------------------INPUT MONITOR-------------------------------------------------------
# UVM_INFO ApbScoreboard.sv(46) @ 265: uvm_test_top.env_h.scb_h [SB] ACTUAL TRANSACTION: size = 1 | TRANSFER = 1 | RW = 0 | WPADDR = 120 | WDATA = bb | RDATA = 0 | RPADDR = 0
# ----------------------------------------------OUTPUT MONITOR-------------------------------------------------------
# UVM_INFO ApbOpMonitor.sv(43) @ 265: uvm_test_top.env_h.pass_h.op_mon_h [OUTPUT MONITOR] [265] transfer =1 , READ_WRITE =0, apb_write_paddr =100100000 , apb_write_data =bb , apb_read_paddr =x, apb_read_data=x
# ----------------------------------------------OUTPUT MONITOR-------------------------------------------------------
# FOR COMPARING : WRITE DATA =bb READ DATA OUT =xx
# -------------------------------------------------------------------WRITE--PASS---------------------------------------------------------------------
# UVM_INFO ApbScoreboard.sv(84) @ 265: uvm_test_top.env_h.scb_h [COMPARE] WRITE PASS | EXPECTED WDATA = bb  ACTUAL WDATA =bb |EXPECTED  WRITE ADDR = 120 ACTUAL WRITE ADDR =120
# WRITE_ADDRESS_VALIDITY: ASSERTION PASS
# TRANSFER_VALIDITY: ASSERTION PASS
# UVM_INFO ApbDriver.sv(63) @ 275: uvm_test_top.env_h.act_h.drv_h [DRIVER] [275] presetn = 1, transfer = 1, READ_WRITE = 0, apb_write_paddr = 138, apb_write_data = 41, apb_read_paddr = 1b6
# ---------------------------------DRIVER-------------------
# -----------------------------------------------------------------------------------------
# Name                           Type        Size  Value                                   
# -----------------------------------------------------------------------------------------
# txn                            ApbSeqItem  -     @844                                    
#   apb_write_paddr              integral    9     'h138                                   
#   apb_read_paddr               integral    9     'h1b6                                   
#   apb_write_data               integral    8     'h41                                    
#   transfer                     integral    1     'h1                                     
#   READ_WRITE                   integral    1     'h0                                     
#   apb_read_data_out            integral    8     'h0                                     
#   begin_time                   time        64    265                                     
#   end_time                     time        64    265                                     
#   depth                        int         32    'd2                                     
#   parent sequence (name)       string      8     write2_h                                
#   parent sequence (full name)  string      40    uvm_test_top.env_h.act_h.seqr_h.write2_h
#   sequencer                    string      31    uvm_test_top.env_h.act_h.seqr_h         
# -----------------------------------------------------------------------------------------
# --------------------------------------DRIVER----------------------------------
# UVM_INFO ApbScoreboard.sv(39) @ 275: uvm_test_top.env_h.scb_h [SB] EXPECTED TRANSACTION: size = 14 | TRANSFER = 1 | RW = 0 | WDATA = 41 | WPADDR = 138 | RPADDR = 0
# ----------------------------------------------INPUT MONITOR-------------------------------------------------------
# --------------------------------------------
# Name                 Type        Size  Value
# --------------------------------------------
# ip_mon_h             ApbSeqItem  -     @701 
#   apb_write_paddr    integral    9     'h138
#   apb_read_paddr     integral    9     'h0  
#   apb_write_data     integral    8     'h41 
#   transfer           integral    1     'h1  
#   READ_WRITE         integral    1     'h0  
#   apb_read_data_out  integral    8     'h0  
# --------------------------------------------
# WRITE ADDRESS = 100111000  READ ADDRESS =000000000 
# THE RESET IS 1
# ----------------------------------------------INPUT MONITOR-------------------------------------------------------
# WRITE ADDRESS == 100111000
# SLAVE 2 
# WRITE_ADDRESS_VALIDITY: ASSERTION PASS
# TRANSFER_VALIDITY: ASSERTION PASS
# UVM_INFO ApbDriver.sv(63) @ 285: uvm_test_top.env_h.act_h.drv_h [DRIVER] [285] presetn = 1, transfer = 1, READ_WRITE = 0, apb_write_paddr = 126, apb_write_data = b7, apb_read_paddr = 0f6
# ---------------------------------DRIVER-------------------
# -----------------------------------------------------------------------------------------
# Name                           Type        Size  Value                                   
# -----------------------------------------------------------------------------------------
# txn                            ApbSeqItem  -     @848                                    
#   apb_write_paddr              integral    9     'h126                                   
#   apb_read_paddr               integral    9     'hf6                                    
#   apb_write_data               integral    8     'hb7                                    
#   transfer                     integral    1     'h1                                     
#   READ_WRITE                   integral    1     'h0                                     
#   apb_read_data_out            integral    8     'h0                                     
#   begin_time                   time        64    275                                     
#   depth                        int         32    'd2                                     
#   parent sequence (name)       string      8     write2_h                                
#   parent sequence (full name)  string      40    uvm_test_top.env_h.act_h.seqr_h.write2_h
#   sequencer                    string      31    uvm_test_top.env_h.act_h.seqr_h         
# -----------------------------------------------------------------------------------------
# --------------------------------------DRIVER----------------------------------
# UVM_INFO ApbScoreboard.sv(39) @ 285: uvm_test_top.env_h.scb_h [SB] EXPECTED TRANSACTION: size = 15 | TRANSFER = 1 | RW = 0 | WDATA = 41 | WPADDR = 138 | RPADDR = 0
# ----------------------------------------------INPUT MONITOR-------------------------------------------------------
# --------------------------------------------
# Name                 Type        Size  Value
# --------------------------------------------
# ip_mon_h             ApbSeqItem  -     @701 
#   apb_write_paddr    integral    9     'h138
#   apb_read_paddr     integral    9     'h0  
#   apb_write_data     integral    8     'h41 
#   transfer           integral    1     'h1  
#   READ_WRITE         integral    1     'h0  
#   apb_read_data_out  integral    8     'h0  
# --------------------------------------------
# WRITE ADDRESS = 100111000  READ ADDRESS =000000000 
# THE RESET IS 1
# ----------------------------------------------INPUT MONITOR-------------------------------------------------------
# UVM_INFO ApbScoreboard.sv(46) @ 285: uvm_test_top.env_h.scb_h [SB] ACTUAL TRANSACTION: size = 1 | TRANSFER = 1 | RW = 0 | WPADDR = 138 | WDATA = 41 | RDATA = 0 | RPADDR = 0
# ----------------------------------------------OUTPUT MONITOR-------------------------------------------------------
# UVM_INFO ApbOpMonitor.sv(43) @ 285: uvm_test_top.env_h.pass_h.op_mon_h [OUTPUT MONITOR] [285] transfer =1 , READ_WRITE =0, apb_write_paddr =100111000 , apb_write_data =41 , apb_read_paddr =x, apb_read_data=x
# ----------------------------------------------OUTPUT MONITOR-------------------------------------------------------
# FOR COMPARING : WRITE DATA =41 READ DATA OUT =xx
# -------------------------------------------------------------------WRITE--PASS---------------------------------------------------------------------
# UVM_INFO ApbScoreboard.sv(84) @ 285: uvm_test_top.env_h.scb_h [COMPARE] WRITE PASS | EXPECTED WDATA = 41  ACTUAL WDATA =41 |EXPECTED  WRITE ADDR = 138 ACTUAL WRITE ADDR =138
# WRITE_ADDRESS_VALIDITY: ASSERTION PASS
# TRANSFER_VALIDITY: ASSERTION PASS
# UVM_INFO ApbDriver.sv(63) @ 295: uvm_test_top.env_h.act_h.drv_h [DRIVER] [295] presetn = 1, transfer = 1, READ_WRITE = 0, apb_write_paddr = 126, apb_write_data = b7, apb_read_paddr = 0f6
# ---------------------------------DRIVER-------------------
