# vsim -c top 
# Start time: 16:57:28 on May 02,2025
# ** Note: (vsim-8009) Loading existing optimized design _opt
# //  Questa Sim
# //  Version 10.6c linux Jul 25 2017
# //
# //  Copyright 1991-2017 Mentor Graphics Corporation
# //  All Rights Reserved.
# //
# //  QuestaSim and its associated documentation contain trade
# //  secrets and commercial or financial information that are the property of
# //  Mentor Graphics Corporation and are privileged, confidential,
# //  and exempt from disclosure under the Freedom of Information Act,
# //  5 U.S.C. Section 552. Furthermore, this information
# //  is prohibited from disclosure under the Trade Secrets Act,
# //  18 U.S.C. Section 1905.
# //
# Loading sv_std.std
# Loading mtiUvm.uvm_pkg
# Loading work.ApbTop_sv_unit(fast)
# Loading work.top(fast)
# Loading mtiUvm.questa_uvm_pkg(fast)
# Loading work.ApbInterface(fast)
# Loading /tools/mentor/questasim_10.6c/questasim/uvm-1.1d/linux/uvm_dpi.so
# ----------------------------------------------------------------
# UVM-1.1d
# (C) 2007-2013 Mentor Graphics Corporation
# (C) 2007-2013 Cadence Design Systems, Inc.
# (C) 2006-2013 Synopsys, Inc.
# (C) 2011-2013 Cypress Semiconductor Corp.
# ----------------------------------------------------------------
# 
#   ***********       IMPORTANT RELEASE NOTES         ************
# 
#   You are using a version of the UVM library that has been compiled
#   with `UVM_NO_DEPRECATED undefined.
#   See http://www.eda.org/svdb/view.php?id=3313 for more details.
# 
#   You are using a version of the UVM library that has been compiled
#   with `UVM_OBJECT_MUST_HAVE_CONSTRUCTOR undefined.
#   See http://www.eda.org/svdb/view.php?id=3770 for more details.
# 
#       (Specify +UVM_NO_RELNOTES to turn off this notice)
# 
# UVM_INFO verilog_src/questa_uvm_pkg-1.2/src/questa_uvm_pkg.sv(215) @ 0: reporter [Questa UVM] QUESTA_UVM-1.2.3
# UVM_INFO verilog_src/questa_uvm_pkg-1.2/src/questa_uvm_pkg.sv(217) @ 0: reporter [Questa UVM]  questa_uvm::init(+struct)
# UVM_INFO @ 0: reporter [RNTST] Running test ApbWriteSlave2Test...
# UVM_INFO @ 0: reporter [UVMTOP] UVM testbench topology:
# ------------------------------------------------------------------
# Name                         Type                      Size  Value
# ------------------------------------------------------------------
# uvm_test_top                 ApbWriteSlave2Test        -     @471 
#   env_h                      ApbEnvironment            -     @478 
#     act_h                    ApbActiveAgent            -     @485 
#       drv_h                  ApbDriver                 -     @537 
#         rsp_port             uvm_analysis_port         -     @552 
#         seq_item_port        uvm_seq_item_pull_port    -     @544 
#       ip_mon_h               ApbIpMonitor              -     @669 
#         item_collected_port  uvm_analysis_port         -     @676 
#       seqr_h                 ApbSequencer              -     @560 
#         rsp_export           uvm_analysis_export       -     @567 
#         seq_item_export      uvm_seq_item_pull_imp     -     @661 
#         arbitration_queue    array                     0     -    
#         lock_queue           array                     0     -    
#         num_last_reqs        integral                  32    'd1  
#         num_last_rsps        integral                  32    'd1  
#     cov_h                    ApbCoverage               -     @506 
#       analysis_imp           uvm_analysis_imp          -     @513 
#       ip_mon_imp             uvm_analysis_imp_ip_mon   -     @521 
#       op_mon_imp             uvm_analysis_imp_op_mon   -     @529 
#     pass_h                   ApbPassiveAgent           -     @492 
#       op_mon_h               ApbOpMonitor              -     @695 
#         item_collected_port  uvm_analysis_port         -     @702 
#     scb_h                    ApbScoreboard             -     @499 
#       in_mon_port            uvm_analysis_imp_in_mon   -     @715 
#       out_mon_port           uvm_analysis_imp_out_mon  -     @723 
# ------------------------------------------------------------------
# 
# WRITE ADDRESS == 110011100
# UVM_INFO ApbDriver.sv(56) @ 5: uvm_test_top.env_h.act_h.drv_h [DRIVER] [5] presetn = 0, transfer = 1,  = 1, apb_write_paddr = 19c, apb_write_data = 008, apb_read_paddr = 195
# ---------------------------------DRIVER-------------------
# --------------------------------------------------------------------------------------
# Name                           Type        Size  Value                                
# --------------------------------------------------------------------------------------
# txn                            ApbSeqItem  -     @739                                 
#   apb_write_paddr              integral    9     'h19c                                
#   apb_read_paddr               integral    9     'h195                                
#   apb_write_data               integral    9     'h8                                  
#   transfer                     integral    1     'h1                                  
#                      integral    1     'h1                                  
#   apb__out            integral    9     'h0                                  
#   begin_time                   time        64    0                                    
#   depth                        int         32    'd2                                  
#   parent sequence (name)       string      5     seq_h                                
#   parent sequence (full name)  string      37    uvm_test_top.env_h.act_h.seqr_h.seq_h
#   sequencer                    string      31    uvm_test_top.env_h.act_h.seqr_h      
# --------------------------------------------------------------------------------------
# --------------------------------------DRIVER----------------------------------
# UVM_INFO ApbScoreboard.sv(43) @ 5: uvm_test_top.env_h.scb_h [SB] Got exp_trans: queue size = 1  TRANSFER =0 ,  = 0, APB_WRITE_DATA = 0, APB_WRITE_PADDR = 0, APB_READ_PADDR = 0
# ----------------------------------------------------------------------------------------------------
# ----------------------------------------------INPUT MONITOR-------------------------------------------------------
# --------------------------------------------
# Name                 Type        Size  Value
# --------------------------------------------
# ip_mon_h             ApbSeqItem  -     @685 
#   apb_write_paddr    integral    9     'h0  
#   apb_read_paddr     integral    9     'h0  
#   apb_write_data     integral    9     'h0  
#   transfer           integral    1     'h0  
#            integral    1     'h0  
#   apb__out  integral    9     'h0  
# --------------------------------------------
# WRITE ADDRESS = 000000000  READ ADDRESS =000000000 
# THE RESET IS 0
# ----------------------------------------------INPUT MONITOR-------------------------------------------------------
# WRITE ADDRESS == 101010010
# UVM_INFO ApbDriver.sv(56) @ 15: uvm_test_top.env_h.act_h.drv_h [DRIVER] [15] presetn = 1, transfer = 1,  = 1, apb_write_paddr = 152, apb_write_data = 0f3, apb_read_paddr = 1d3
# ---------------------------------DRIVER-------------------
# --------------------------------------------------------------------------------------
# Name                           Type        Size  Value                                
# --------------------------------------------------------------------------------------
# txn                            ApbSeqItem  -     @739                                 
#   apb_write_paddr              integral    9     'h152                                
#   apb_read_paddr               integral    9     'h1d3                                
#   apb_write_data               integral    9     'hf3                                 
#   transfer                     integral    1     'h1                                  
#                      integral    1     'h1                                  
#   apb__out            integral    9     'h0                                  
#   begin_time                   time        64    5                                    
#   end_time                     time        64    5                                    
#   depth                        int         32    'd2                                  
#   parent sequence (name)       string      5     seq_h                                
#   parent sequence (full name)  string      37    uvm_test_top.env_h.act_h.seqr_h.seq_h
#   sequencer                    string      31    uvm_test_top.env_h.act_h.seqr_h      
# --------------------------------------------------------------------------------------
# --------------------------------------DRIVER----------------------------------
# UVM_INFO ApbScoreboard.sv(50) @ 15: uvm_test_top.env_h.scb_h [SB] Got act_trans: queue size = 1  TRANSFER =0 ,  = 0,  APB_WRITE_PADDR = 0, APB_READ_DATA_OUT =000, APB_READ_PADDR = 0 
# ----------------------------------------------------------------------------------------------------
# ----------------------------------------------OUTPUT MONITOR-------------------------------------------------------
# UVM_INFO ApbOpMonitor.sv(42) @ 15: uvm_test_top.env_h.pass_h.op_mon_h [OUTPUT MONITOR] [15] transfer =0 ,  =0, apb_write_paddr =000000000 , apb_write_data =00 , apb_read_paddr =0, apb_=x
# ----------------------------------------------OUTPUT MONITOR-------------------------------------------------------
# UVM_INFO ApbScoreboard.sv(43) @ 15: uvm_test_top.env_h.scb_h [SB] Got exp_trans: queue size = 2  TRANSFER =0 ,  = 0, APB_WRITE_DATA = 0, APB_WRITE_PADDR = 0, APB_READ_PADDR = 0
# ----------------------------------------------------------------------------------------------------
# ----------------------------------------------INPUT MONITOR-------------------------------------------------------
# --------------------------------------------
# Name                 Type        Size  Value
# --------------------------------------------
# ip_mon_h             ApbSeqItem  -     @685 
#   apb_write_paddr    integral    9     'h0  
#   apb_read_paddr     integral    9     'h0  
#   apb_write_data     integral    9     'h0  
#   transfer           integral    1     'h0  
#            integral    1     'h0  
#   apb__out  integral    9     'h0  
# --------------------------------------------
# WRITE ADDRESS = 000000000  READ ADDRESS =000000000 
# THE RESET IS 1
# ----------------------------------------------INPUT MONITOR-------------------------------------------------------
# WRITE ADDRESS == 101100011
# UVM_INFO ApbDriver.sv(56) @ 25: uvm_test_top.env_h.act_h.drv_h [DRIVER] [25] presetn = 1, transfer = 1,  = 1, apb_write_paddr = 163, apb_write_data = 08e, apb_read_paddr = 1fe
# ---------------------------------DRIVER-------------------
# --------------------------------------------------------------------------------------
# Name                           Type        Size  Value                                
# --------------------------------------------------------------------------------------
# txn                            ApbSeqItem  -     @739                                 
#   apb_write_paddr              integral    9     'h163                                
#   apb_read_paddr               integral    9     'h1fe                                
#   apb_write_data               integral    9     'h8e                                 
#   transfer                     integral    1     'h1                                  
#                      integral    1     'h1                                  
#   apb__out            integral    9     'h0                                  
#   begin_time                   time        64    15                                   
#   end_time                     time        64    15                                   
#   depth                        int         32    'd2                                  
#   parent sequence (name)       string      5     seq_h                                
#   parent sequence (full name)  string      37    uvm_test_top.env_h.act_h.seqr_h.seq_h
#   sequencer                    string      31    uvm_test_top.env_h.act_h.seqr_h      
# --------------------------------------------------------------------------------------
# --------------------------------------DRIVER----------------------------------
# UVM_INFO ApbScoreboard.sv(43) @ 25: uvm_test_top.env_h.scb_h [SB] Got exp_trans: queue size = 2  TRANSFER =1 ,  = 1, APB_WRITE_DATA = f3, APB_WRITE_PADDR = 152, APB_READ_PADDR = 0
# ----------------------------------------------------------------------------------------------------
# ----------------------------------------------INPUT MONITOR-------------------------------------------------------
# --------------------------------------------
# Name                 Type        Size  Value
# --------------------------------------------
# ip_mon_h             ApbSeqItem  -     @685 
#   apb_write_paddr    integral    9     'h152
#   apb_read_paddr     integral    9     'h0  
#   apb_write_data     integral    9     'hf3 
#   transfer           integral    1     'h1  
#            integral    1     'h1  
#   apb__out  integral    9     'h0  
# --------------------------------------------
# WRITE ADDRESS = 101010010  READ ADDRESS =000000000 
# THE RESET IS 1
# ----------------------------------------------INPUT MONITOR-------------------------------------------------------
# UVM_INFO ApbScoreboard.sv(50) @ 25: uvm_test_top.env_h.scb_h [SB] Got act_trans: queue size = 1  TRANSFER =1 ,  = 1,  APB_WRITE_PADDR = 152, APB_READ_DATA_OUT =000, APB_READ_PADDR = 0 
# ----------------------------------------------------------------------------------------------------
# ----------------------------------------------OUTPUT MONITOR-------------------------------------------------------
# UVM_INFO ApbOpMonitor.sv(42) @ 25: uvm_test_top.env_h.pass_h.op_mon_h [OUTPUT MONITOR] [25] transfer =1 ,  =1, apb_write_paddr =101010010 , apb_write_data =f3 , apb_read_paddr =0, apb_=x
# ----------------------------------------------OUTPUT MONITOR-------------------------------------------------------
# WRITE ADDRESS == 101100111
# UVM_INFO ApbScoreboard.sv(85) @ 25: uvm_test_top.env_h.scb_h [compare] -------------Test: PASS------------
#  EXPECTED apb_write_data = f3 ACTUAL apb_write_data = f3  EXPECTED apb_write_paddr =152 ACTUAL apb_write_apddr = 152 
# UVM_INFO ApbDriver.sv(56) @ 35: uvm_test_top.env_h.act_h.drv_h [DRIVER] [35] presetn = 1, transfer = 1,  = 1, apb_write_paddr = 167, apb_write_data = 075, apb_read_paddr = 045
# ---------------------------------DRIVER-------------------
# --------------------------------------------------------------------------------------
# Name                           Type        Size  Value                                
# --------------------------------------------------------------------------------------
# txn                            ApbSeqItem  -     @739                                 
#   apb_write_paddr              integral    9     'h167                                
#   apb_read_paddr               integral    9     'h45                                 
#   apb_write_data               integral    9     'h75                                 
#   transfer                     integral    1     'h1                                  
#                      integral    1     'h1                                  
#   apb__out            integral    9     'h0                                  
#   begin_time                   time        64    25                                   
#   end_time                     time        64    25                                   
#   depth                        int         32    'd2                                  
#   parent sequence (name)       string      5     seq_h                                
#   parent sequence (full name)  string      37    uvm_test_top.env_h.act_h.seqr_h.seq_h
#   sequencer                    string      31    uvm_test_top.env_h.act_h.seqr_h      
# --------------------------------------------------------------------------------------
# --------------------------------------DRIVER----------------------------------
# UVM_INFO ApbScoreboard.sv(50) @ 35: uvm_test_top.env_h.scb_h [SB] Got act_trans: queue size = 1  TRANSFER =1 ,  = 1,  APB_WRITE_PADDR = 163, APB_READ_DATA_OUT =000, APB_READ_PADDR = 0 
# ----------------------------------------------------------------------------------------------------
# ----------------------------------------------OUTPUT MONITOR-------------------------------------------------------
# UVM_INFO ApbOpMonitor.sv(42) @ 35: uvm_test_top.env_h.pass_h.op_mon_h [OUTPUT MONITOR] [35] transfer =1 ,  =1, apb_write_paddr =101100011 , apb_write_data =8e , apb_read_paddr =0, apb_=x
# ----------------------------------------------OUTPUT MONITOR-------------------------------------------------------
# UVM_INFO ApbScoreboard.sv(43) @ 35: uvm_test_top.env_h.scb_h [SB] Got exp_trans: queue size = 2  TRANSFER =1 ,  = 1, APB_WRITE_DATA = 8e, APB_WRITE_PADDR = 163, APB_READ_PADDR = 0
# ----------------------------------------------------------------------------------------------------
# ----------------------------------------------INPUT MONITOR-------------------------------------------------------
# --------------------------------------------
# Name                 Type        Size  Value
# --------------------------------------------
# ip_mon_h             ApbSeqItem  -     @685 
#   apb_write_paddr    integral    9     'h163
#   apb_read_paddr     integral    9     'h0  
#   apb_write_data     integral    9     'h8e 
#   transfer           integral    1     'h1  
#            integral    1     'h1  
#   apb__out  integral    9     'h0  
# --------------------------------------------
# WRITE ADDRESS = 101100011  READ ADDRESS =000000000 
# THE RESET IS 1
# ----------------------------------------------INPUT MONITOR-------------------------------------------------------
# WRITE ADDRESS == 101000001
# UVM_INFO ApbScoreboard.sv(85) @ 35: uvm_test_top.env_h.scb_h [compare] -------------Test: PASS------------
#  EXPECTED apb_write_data = 8e ACTUAL apb_write_data = 8e  EXPECTED apb_write_paddr =163 ACTUAL apb_write_apddr = 163 
# UVM_INFO ApbDriver.sv(56) @ 45: uvm_test_top.env_h.act_h.drv_h [DRIVER] [45] presetn = 1, transfer = 1,  = 1, apb_write_paddr = 141, apb_write_data = 013, apb_read_paddr = 01a
# ---------------------------------DRIVER-------------------
# --------------------------------------------------------------------------------------
# Name                           Type        Size  Value                                
# --------------------------------------------------------------------------------------
# txn                            ApbSeqItem  -     @739                                 
#   apb_write_paddr              integral    9     'h141                                
#   apb_read_paddr               integral    9     'h1a                                 
#   apb_write_data               integral    9     'h13                                 
#   transfer                     integral    1     'h1                                  
#                      integral    1     'h1                                  
#   apb__out            integral    9     'h0                                  
#   begin_time                   time        64    35                                   
#   end_time                     time        64    35                                   
#   depth                        int         32    'd2                                  
#   parent sequence (name)       string      5     seq_h                                
#   parent sequence (full name)  string      37    uvm_test_top.env_h.act_h.seqr_h.seq_h
#   sequencer                    string      31    uvm_test_top.env_h.act_h.seqr_h      
# --------------------------------------------------------------------------------------
# --------------------------------------DRIVER----------------------------------
# UVM_INFO ApbScoreboard.sv(43) @ 45: uvm_test_top.env_h.scb_h [SB] Got exp_trans: queue size = 2  TRANSFER =1 ,  = 1, APB_WRITE_DATA = 75, APB_WRITE_PADDR = 167, APB_READ_PADDR = 0
# ----------------------------------------------------------------------------------------------------
# ----------------------------------------------INPUT MONITOR-------------------------------------------------------
# --------------------------------------------
# Name                 Type        Size  Value
# --------------------------------------------
# ip_mon_h             ApbSeqItem  -     @685 
#   apb_write_paddr    integral    9     'h167
#   apb_read_paddr     integral    9     'h0  
#   apb_write_data     integral    9     'h75 
#   transfer           integral    1     'h1  
#            integral    1     'h1  
#   apb__out  integral    9     'h0  
# --------------------------------------------
# WRITE ADDRESS = 101100111  READ ADDRESS =000000000 
# THE RESET IS 1
# ----------------------------------------------INPUT MONITOR-------------------------------------------------------
# UVM_INFO ApbScoreboard.sv(50) @ 45: uvm_test_top.env_h.scb_h [SB] Got act_trans: queue size = 1  TRANSFER =1 ,  = 1,  APB_WRITE_PADDR = 167, APB_READ_DATA_OUT =000, APB_READ_PADDR = 0 
# ----------------------------------------------------------------------------------------------------
# ----------------------------------------------OUTPUT MONITOR-------------------------------------------------------
# UVM_INFO ApbOpMonitor.sv(42) @ 45: uvm_test_top.env_h.pass_h.op_mon_h [OUTPUT MONITOR] [45] transfer =1 ,  =1, apb_write_paddr =101100111 , apb_write_data =75 , apb_read_paddr =0, apb_=x
# ----------------------------------------------OUTPUT MONITOR-------------------------------------------------------
# WRITE ADDRESS == 100001101
# UVM_INFO ApbScoreboard.sv(85) @ 45: uvm_test_top.env_h.scb_h [compare] -------------Test: PASS------------
#  EXPECTED apb_write_data = 75 ACTUAL apb_write_data = 75  EXPECTED apb_write_paddr =167 ACTUAL apb_write_apddr = 167 
# UVM_INFO ApbDriver.sv(56) @ 55: uvm_test_top.env_h.act_h.drv_h [DRIVER] [55] presetn = 1, transfer = 1,  = 1, apb_write_paddr = 10d, apb_write_data = 037, apb_read_paddr = 17c
# ---------------------------------DRIVER-------------------
# --------------------------------------------------------------------------------------
# Name                           Type        Size  Value                                
# --------------------------------------------------------------------------------------
# txn                            ApbSeqItem  -     @739                                 
#   apb_write_paddr              integral    9     'h10d                                
#   apb_read_paddr               integral    9     'h17c                                
#   apb_write_data               integral    9     'h37                                 
#   transfer                     integral    1     'h1                                  
#                      integral    1     'h1                                  
#   apb__out            integral    9     'h0                                  
#   begin_time                   time        64    45                                   
#   end_time                     time        64    45                                   
#   depth                        int         32    'd2                                  
#   parent sequence (name)       string      5     seq_h                                
#   parent sequence (full name)  string      37    uvm_test_top.env_h.act_h.seqr_h.seq_h
#   sequencer                    string      31    uvm_test_top.env_h.act_h.seqr_h      
# --------------------------------------------------------------------------------------
# --------------------------------------DRIVER----------------------------------
# UVM_INFO ApbScoreboard.sv(50) @ 55: uvm_test_top.env_h.scb_h [SB] Got act_trans: queue size = 1  TRANSFER =1 ,  = 1,  APB_WRITE_PADDR = 141, APB_READ_DATA_OUT =000, APB_READ_PADDR = 0 
# ----------------------------------------------------------------------------------------------------
# ----------------------------------------------OUTPUT MONITOR-------------------------------------------------------
# UVM_INFO ApbOpMonitor.sv(42) @ 55: uvm_test_top.env_h.pass_h.op_mon_h [OUTPUT MONITOR] [55] transfer =1 ,  =1, apb_write_paddr =101000001 , apb_write_data =13 , apb_read_paddr =0, apb_=x
# ----------------------------------------------OUTPUT MONITOR-------------------------------------------------------
# UVM_INFO ApbScoreboard.sv(43) @ 55: uvm_test_top.env_h.scb_h [SB] Got exp_trans: queue size = 2  TRANSFER =1 ,  = 1, APB_WRITE_DATA = 13, APB_WRITE_PADDR = 141, APB_READ_PADDR = 0
# ----------------------------------------------------------------------------------------------------
# ----------------------------------------------INPUT MONITOR-------------------------------------------------------
# --------------------------------------------
# Name                 Type        Size  Value
# --------------------------------------------
# ip_mon_h             ApbSeqItem  -     @685 
#   apb_write_paddr    integral    9     'h141
#   apb_read_paddr     integral    9     'h0  
#   apb_write_data     integral    9     'h13 
#   transfer           integral    1     'h1  
#            integral    1     'h1  
#   apb__out  integral    9     'h0  
# --------------------------------------------
# WRITE ADDRESS = 101000001  READ ADDRESS =000000000 
# THE RESET IS 1
# ----------------------------------------------INPUT MONITOR-------------------------------------------------------
# WRITE ADDRESS == 101000001
# UVM_INFO ApbScoreboard.sv(85) @ 55: uvm_test_top.env_h.scb_h [compare] -------------Test: PASS------------
#  EXPECTED apb_write_data = 13 ACTUAL apb_write_data = 13  EXPECTED apb_write_paddr =141 ACTUAL apb_write_apddr = 141 
# UVM_INFO ApbDriver.sv(56) @ 65: uvm_test_top.env_h.act_h.drv_h [DRIVER] [65] presetn = 1, transfer = 1,  = 1, apb_write_paddr = 141, apb_write_data = 052, apb_read_paddr = 01c
# ---------------------------------DRIVER-------------------
# --------------------------------------------------------------------------------------
# Name                           Type        Size  Value                                
# --------------------------------------------------------------------------------------
# txn                            ApbSeqItem  -     @739                                 
#   apb_write_paddr              integral    9     'h141                                
#   apb_read_paddr               integral    9     'h1c                                 
#   apb_write_data               integral    9     'h52                                 
#   transfer                     integral    1     'h1                                  
#                      integral    1     'h1                                  
#   apb__out            integral    9     'h0                                  
#   begin_time                   time        64    55                                   
#   end_time                     time        64    55                                   
#   depth                        int         32    'd2                                  
#   parent sequence (name)       string      5     seq_h                                
#   parent sequence (full name)  string      37    uvm_test_top.env_h.act_h.seqr_h.seq_h
#   sequencer                    string      31    uvm_test_top.env_h.act_h.seqr_h      
# --------------------------------------------------------------------------------------
# --------------------------------------DRIVER----------------------------------
# UVM_INFO ApbScoreboard.sv(43) @ 65: uvm_test_top.env_h.scb_h [SB] Got exp_trans: queue size = 2  TRANSFER =1 ,  = 1, APB_WRITE_DATA = 37, APB_WRITE_PADDR = 10d, APB_READ_PADDR = 0
# ----------------------------------------------------------------------------------------------------
# ----------------------------------------------INPUT MONITOR-------------------------------------------------------
# --------------------------------------------
# Name                 Type        Size  Value
# --------------------------------------------
# ip_mon_h             ApbSeqItem  -     @685 
#   apb_write_paddr    integral    9     'h10d
#   apb_read_paddr     integral    9     'h0  
#   apb_write_data     integral    9     'h37 
#   transfer           integral    1     'h1  
#            integral    1     'h1  
#   apb__out  integral    9     'h0  
# --------------------------------------------
# WRITE ADDRESS = 100001101  READ ADDRESS =000000000 
# THE RESET IS 1
# ----------------------------------------------INPUT MONITOR-------------------------------------------------------
# UVM_INFO ApbScoreboard.sv(50) @ 65: uvm_test_top.env_h.scb_h [SB] Got act_trans: queue size = 1  TRANSFER =1 ,  = 1,  APB_WRITE_PADDR = 10d, APB_READ_DATA_OUT =000, APB_READ_PADDR = 0 
# ----------------------------------------------------------------------------------------------------
# ----------------------------------------------OUTPUT MONITOR-------------------------------------------------------
# UVM_INFO ApbOpMonitor.sv(42) @ 65: uvm_test_top.env_h.pass_h.op_mon_h [OUTPUT MONITOR] [65] transfer =1 ,  =1, apb_write_paddr =100001101 , apb_write_data =37 , apb_read_paddr =0, apb_=x
# ----------------------------------------------OUTPUT MONITOR-------------------------------------------------------
# WRITE ADDRESS == 100110110
# UVM_INFO ApbScoreboard.sv(85) @ 65: uvm_test_top.env_h.scb_h [compare] -------------Test: PASS------------
#  EXPECTED apb_write_data = 37 ACTUAL apb_write_data = 37  EXPECTED apb_write_paddr =10d ACTUAL apb_write_apddr = 10d 
# UVM_INFO ApbDriver.sv(56) @ 75: uvm_test_top.env_h.act_h.drv_h [DRIVER] [75] presetn = 1, transfer = 1,  = 1, apb_write_paddr = 136, apb_write_data = 0d2, apb_read_paddr = 19a
# ---------------------------------DRIVER-------------------
# --------------------------------------------------------------------------------------
# Name                           Type        Size  Value                                
# --------------------------------------------------------------------------------------
# txn                            ApbSeqItem  -     @739                                 
#   apb_write_paddr              integral    9     'h136                                
#   apb_read_paddr               integral    9     'h19a                                
#   apb_write_data               integral    9     'hd2                                 
#   transfer                     integral    1     'h1                                  
#                      integral    1     'h1                                  
#   apb__out            integral    9     'h0                                  
#   begin_time                   time        64    65                                   
#   end_time                     time        64    65                                   
#   depth                        int         32    'd2                                  
#   parent sequence (name)       string      5     seq_h                                
#   parent sequence (full name)  string      37    uvm_test_top.env_h.act_h.seqr_h.seq_h
#   sequencer                    string      31    uvm_test_top.env_h.act_h.seqr_h      
# --------------------------------------------------------------------------------------
# --------------------------------------DRIVER----------------------------------
# UVM_INFO ApbScoreboard.sv(50) @ 75: uvm_test_top.env_h.scb_h [SB] Got act_trans: queue size = 1  TRANSFER =1 ,  = 1,  APB_WRITE_PADDR = 141, APB_READ_DATA_OUT =000, APB_READ_PADDR = 0 
# ----------------------------------------------------------------------------------------------------
# ----------------------------------------------OUTPUT MONITOR-------------------------------------------------------
# UVM_INFO ApbOpMonitor.sv(42) @ 75: uvm_test_top.env_h.pass_h.op_mon_h [OUTPUT MONITOR] [75] transfer =1 ,  =1, apb_write_paddr =101000001 , apb_write_data =52 , apb_read_paddr =0, apb_=x
# ----------------------------------------------OUTPUT MONITOR-------------------------------------------------------
# UVM_INFO ApbScoreboard.sv(43) @ 75: uvm_test_top.env_h.scb_h [SB] Got exp_trans: queue size = 2  TRANSFER =1 ,  = 1, APB_WRITE_DATA = 52, APB_WRITE_PADDR = 141, APB_READ_PADDR = 0
# ----------------------------------------------------------------------------------------------------
# ----------------------------------------------INPUT MONITOR-------------------------------------------------------
# --------------------------------------------
# Name                 Type        Size  Value
# --------------------------------------------
# ip_mon_h             ApbSeqItem  -     @685 
#   apb_write_paddr    integral    9     'h141
#   apb_read_paddr     integral    9     'h0  
#   apb_write_data     integral    9     'h52 
#   transfer           integral    1     'h1  
#            integral    1     'h1  
#   apb__out  integral    9     'h0  
# --------------------------------------------
# WRITE ADDRESS = 101000001  READ ADDRESS =000000000 
# THE RESET IS 1
# ----------------------------------------------INPUT MONITOR-------------------------------------------------------
# WRITE ADDRESS == 100111010
# UVM_INFO ApbScoreboard.sv(85) @ 75: uvm_test_top.env_h.scb_h [compare] -------------Test: PASS------------
#  EXPECTED apb_write_data = 52 ACTUAL apb_write_data = 52  EXPECTED apb_write_paddr =141 ACTUAL apb_write_apddr = 141 
# UVM_INFO ApbDriver.sv(56) @ 85: uvm_test_top.env_h.act_h.drv_h [DRIVER] [85] presetn = 1, transfer = 1,  = 1, apb_write_paddr = 13a, apb_write_data = 091, apb_read_paddr = 05f
# ---------------------------------DRIVER-------------------
# --------------------------------------------------------------------------------------
# Name                           Type        Size  Value                                
# --------------------------------------------------------------------------------------
# txn                            ApbSeqItem  -     @739                                 
#   apb_write_paddr              integral    9     'h13a                                
#   apb_read_paddr               integral    9     'h5f                                 
#   apb_write_data               integral    9     'h91                                 
#   transfer                     integral    1     'h1                                  
#                      integral    1     'h1                                  
#   apb__out            integral    9     'h0                                  
#   begin_time                   time        64    75                                   
#   end_time                     time        64    75                                   
#   depth                        int         32    'd2                                  
#   parent sequence (name)       string      5     seq_h                                
#   parent sequence (full name)  string      37    uvm_test_top.env_h.act_h.seqr_h.seq_h
#   sequencer                    string      31    uvm_test_top.env_h.act_h.seqr_h      
# --------------------------------------------------------------------------------------
# --------------------------------------DRIVER----------------------------------
# UVM_INFO ApbScoreboard.sv(43) @ 85: uvm_test_top.env_h.scb_h [SB] Got exp_trans: queue size = 2  TRANSFER =1 ,  = 1, APB_WRITE_DATA = d2, APB_WRITE_PADDR = 136, APB_READ_PADDR = 0
# ----------------------------------------------------------------------------------------------------
# ----------------------------------------------INPUT MONITOR-------------------------------------------------------
# --------------------------------------------
# Name                 Type        Size  Value
# --------------------------------------------
# ip_mon_h             ApbSeqItem  -     @685 
#   apb_write_paddr    integral    9     'h136
#   apb_read_paddr     integral    9     'h0  
#   apb_write_data     integral    9     'hd2 
#   transfer           integral    1     'h1  
#            integral    1     'h1  
#   apb__out  integral    9     'h0  
# --------------------------------------------
# WRITE ADDRESS = 100110110  READ ADDRESS =000000000 
# THE RESET IS 1
# ----------------------------------------------INPUT MONITOR-------------------------------------------------------
# UVM_INFO ApbScoreboard.sv(50) @ 85: uvm_test_top.env_h.scb_h [SB] Got act_trans: queue size = 1  TRANSFER =1 ,  = 1,  APB_WRITE_PADDR = 136, APB_READ_DATA_OUT =000, APB_READ_PADDR = 0 
# ----------------------------------------------------------------------------------------------------
# ----------------------------------------------OUTPUT MONITOR-------------------------------------------------------
# UVM_INFO ApbOpMonitor.sv(42) @ 85: uvm_test_top.env_h.pass_h.op_mon_h [OUTPUT MONITOR] [85] transfer =1 ,  =1, apb_write_paddr =100110110 , apb_write_data =d2 , apb_read_paddr =0, apb_=x
# ----------------------------------------------OUTPUT MONITOR-------------------------------------------------------
# WRITE ADDRESS == 110100001
# UVM_INFO ApbScoreboard.sv(85) @ 85: uvm_test_top.env_h.scb_h [compare] -------------Test: PASS------------
#  EXPECTED apb_write_data = d2 ACTUAL apb_write_data = d2  EXPECTED apb_write_paddr =136 ACTUAL apb_write_apddr = 136 
# UVM_INFO ApbDriver.sv(56) @ 95: uvm_test_top.env_h.act_h.drv_h [DRIVER] [95] presetn = 1, transfer = 1,  = 1, apb_write_paddr = 1a1, apb_write_data = 061, apb_read_paddr = 0f4
# ---------------------------------DRIVER-------------------
# --------------------------------------------------------------------------------------
# Name                           Type        Size  Value                                
# --------------------------------------------------------------------------------------
# txn                            ApbSeqItem  -     @739                                 
#   apb_write_paddr              integral    9     'h1a1                                
#   apb_read_paddr               integral    9     'hf4                                 
#   apb_write_data               integral    9     'h61                                 
#   transfer                     integral    1     'h1                                  
#                      integral    1     'h1                                  
#   apb__out            integral    9     'h0                                  
#   begin_time                   time        64    85                                   
#   end_time                     time        64    85                                   
#   depth                        int         32    'd2                                  
#   parent sequence (name)       string      5     seq_h                                
#   parent sequence (full name)  string      37    uvm_test_top.env_h.act_h.seqr_h.seq_h
#   sequencer                    string      31    uvm_test_top.env_h.act_h.seqr_h      
# --------------------------------------------------------------------------------------
# --------------------------------------DRIVER----------------------------------
# UVM_INFO ApbScoreboard.sv(50) @ 95: uvm_test_top.env_h.scb_h [SB] Got act_trans: queue size = 1  TRANSFER =1 ,  = 1,  APB_WRITE_PADDR = 13a, APB_READ_DATA_OUT =000, APB_READ_PADDR = 0 
# ----------------------------------------------------------------------------------------------------
# ----------------------------------------------OUTPUT MONITOR-------------------------------------------------------
# UVM_INFO ApbOpMonitor.sv(42) @ 95: uvm_test_top.env_h.pass_h.op_mon_h [OUTPUT MONITOR] [95] transfer =1 ,  =1, apb_write_paddr =100111010 , apb_write_data =91 , apb_read_paddr =0, apb_=x
# ----------------------------------------------OUTPUT MONITOR-------------------------------------------------------
# UVM_INFO ApbScoreboard.sv(43) @ 95: uvm_test_top.env_h.scb_h [SB] Got exp_trans: queue size = 2  TRANSFER =1 ,  = 1, APB_WRITE_DATA = 91, APB_WRITE_PADDR = 13a, APB_READ_PADDR = 0
# ----------------------------------------------------------------------------------------------------
# ----------------------------------------------INPUT MONITOR-------------------------------------------------------
# --------------------------------------------
# Name                 Type        Size  Value
# --------------------------------------------
# ip_mon_h             ApbSeqItem  -     @685 
#   apb_write_paddr    integral    9     'h13a
#   apb_read_paddr     integral    9     'h0  
#   apb_write_data     integral    9     'h91 
#   transfer           integral    1     'h1  
#            integral    1     'h1  
#   apb__out  integral    9     'h0  
# --------------------------------------------
# WRITE ADDRESS = 100111010  READ ADDRESS =000000000 
# THE RESET IS 1
# ----------------------------------------------INPUT MONITOR-------------------------------------------------------
# UVM_INFO ApbScoreboard.sv(85) @ 95: uvm_test_top.env_h.scb_h [compare] -------------Test: PASS------------
#  EXPECTED apb_write_data = 91 ACTUAL apb_write_data = 91  EXPECTED apb_write_paddr =13a ACTUAL apb_write_apddr = 13a 
# UVM_INFO verilog_src/uvm-1.1d/src/base/uvm_objection.svh(1268) @ 95: reporter [TEST_DONE] 'run' phase is ready to proceed to the 'extract' phase
# UVM_INFO ApbCoverage.sv(90) @ 95: uvm_test_top.env_h.cov_h [COVERAGE] 
#  Input coverage is 92.857143 
#  output coverage is 100.000000
# UVM_INFO ApbScoreboard.sv(121) @ 95: uvm_test_top.env_h.scb_h [ApbScoreboard] ---------------------------------------
# UVM_INFO ApbScoreboard.sv(122) @ 95: uvm_test_top.env_h.scb_h [ApbScoreboard] ----       TEST PASS COUNTS  8     ----
# UVM_INFO ApbScoreboard.sv(123) @ 95: uvm_test_top.env_h.scb_h [ApbScoreboard] ---------------------------------------
# 
# --- UVM Report Summary ---
# 
# ** Report counts by severity
# UVM_INFO :   55
# UVM_WARNING :    0
# UVM_ERROR :    0
# UVM_FATAL :    0
# ** Report counts by id
# [ApbScoreboard]     3
# [COVERAGE]     1
# [DRIVER]    10
# [OUTPUT MONITOR]     9
# [Questa UVM]     2
# [RNTST]     1
# [SB]    19
# [TEST_DONE]     1
# [UVMTOP]     1
# [compare]     8
# ** Note: $finish    : /tools/mentor/questasim_10.6c/questasim/linux/../verilog_src/uvm-1.1d/src/base/uvm_root.svh(430)
#    Time: 95 ns  Iteration: 61  Instance: /top
# End time: 16:57:35 on May 02,2025, Elapsed time: 0:00:07
# Errors: 0, Warnings: 0
