# //  Questa Sim
# //  Version 10.6c linux Jul 25 2017
# //
# //  Copyright 1991-2017 Mentor Graphics Corporation
# //  All Rights Reserved.
# //
# //  QuestaSim and its associated documentation contain trade
# //  secrets and commercial or financial information that are the property of
# //  Mentor Graphics Corporation and are privileged, confidential,
# //  and exempt from disclosure under the Freedom of Information Act,
# //  5 U.S.C. Section 552. Furthermore, this information
# //  is prohibited from disclosure under the Trade Secrets Act,
# //  18 U.S.C. Section 1905.
# //
# vsim -novopt -suppress 12110 top 
# Start time: 13:31:43 on May 21,2025
# ** Warning: (vsim-8891) All optimizations are turned off because the -novopt switch is in effect. This will cause your simulation to run very slowly. If you are using this switch to preserve visibility for Debug or PLI features please see the User's Manual section on Preserving Object Visibility with vopt.
# Refreshing /fetools/work_area/frontend/nishashetty/APB_2Slave/src/work.top
# Refreshing /fetools/work_area/frontend/nishashetty/APB_2Slave/src/work.ApbTop_sv_unit
# Loading sv_std.std
# Loading mtiUvm.uvm_pkg
# Loading work.ApbTop_sv_unit
# Loading work.top
# Refreshing /fetools/work_area/frontend/nishashetty/APB_2Slave/src/work.APB_Protocol
# Loading work.APB_Protocol
# Refreshing /fetools/work_area/frontend/nishashetty/APB_2Slave/src/work.master_bridge
# Loading work.master_bridge
# Refreshing /fetools/work_area/frontend/nishashetty/APB_2Slave/src/work.slave1
# Loading work.slave1
# Refreshing /fetools/work_area/frontend/nishashetty/APB_2Slave/src/work.slave2
# Loading work.slave2
# Refreshing /fetools/work_area/frontend/nishashetty/APB_2Slave/src/work.ApbInterface
# Loading work.ApbInterface
# Loading mtiUvm.questa_uvm_pkg
# ** Warning: (vsim-3017) ApbTop.sv(12): [TFMPC] - Too few port connections. Expected 9, found 8.
#    Time: 0 ns  Iteration: 0  Instance: /top/dut File: apbtop.v
# ** Warning: (vsim-3722) ApbTop.sv(12): [TFMPC] - Missing connection for port 'PSLVERR'.
# Loading /tools/mentor/questasim_10.6c/questasim/uvm-1.1d/linux/uvm_dpi.so
add wave -position insertpoint sim:/top/dut/*
run -all
# ----------------------------------------------------------------
# UVM-1.1d
# (C) 2007-2013 Mentor Graphics Corporation
# (C) 2007-2013 Cadence Design Systems, Inc.
# (C) 2006-2013 Synopsys, Inc.
# (C) 2011-2013 Cypress Semiconductor Corp.
# ----------------------------------------------------------------
# 
#   ***********       IMPORTANT RELEASE NOTES         ************
# 
#   You are using a version of the UVM library that has been compiled
#   with `UVM_NO_DEPRECATED undefined.
#   See http://www.eda.org/svdb/view.php?id=3313 for more details.
# 
#   You are using a version of the UVM library that has been compiled
#   with `UVM_OBJECT_MUST_HAVE_CONSTRUCTOR undefined.
#   See http://www.eda.org/svdb/view.php?id=3770 for more details.
# 
#       (Specify +UVM_NO_RELNOTES to turn off this notice)
# 
# UVM_INFO verilog_src/questa_uvm_pkg-1.2/src/questa_uvm_pkg.sv(215) @ 0: reporter [Questa UVM] QUESTA_UVM-1.2.3
# UVM_INFO verilog_src/questa_uvm_pkg-1.2/src/questa_uvm_pkg.sv(217) @ 0: reporter [Questa UVM]  questa_uvm::init(+struct)
# UVM_INFO @ 0: reporter [RNTST] Running test ApbReadSlave2Test...
# UVM_INFO @ 0: reporter [UVMTOP] UVM testbench topology:
# ------------------------------------------------------------------
# Name                         Type                      Size  Value
# ------------------------------------------------------------------
# uvm_test_top                 ApbReadSlave2Test         -     @471 
#   env_h                      ApbEnvironment            -     @478 
#     act_h                    ApbActiveAgent            -     @485 
#       drv_h                  ApbDriver                 -     @537 
#         rsp_port             uvm_analysis_port         -     @552 
#         seq_item_port        uvm_seq_item_pull_port    -     @544 
#       ip_mon_h               ApbIpMonitor              -     @669 
#         item_collected_port  uvm_analysis_port         -     @676 
#       seqr_h                 ApbSequencer              -     @560 
#         rsp_export           uvm_analysis_export       -     @567 
#         seq_item_export      uvm_seq_item_pull_imp     -     @661 
#         arbitration_queue    array                     0     -    
#         lock_queue           array                     0     -    
#         num_last_reqs        integral                  32    'd1  
#         num_last_rsps        integral                  32    'd1  
#     cov_h                    ApbCoverage               -     @506 
#       analysis_imp           uvm_analysis_imp          -     @513 
#       ip_mon_imp             uvm_analysis_imp_ip_mon   -     @521 
#       op_mon_imp             uvm_analysis_imp_op_mon   -     @529 
#     pass_h                   ApbPassiveAgent           -     @492 
#       op_mon_h               ApbOpMonitor              -     @695 
#         item_collected_port  uvm_analysis_port         -     @702 
#     scb_h                    ApbScoreboard             -     @499 
#       in_mon_port            uvm_analysis_imp_in_mon   -     @715 
#       out_mon_port           uvm_analysis_imp_out_mon  -     @723 
# ------------------------------------------------------------------
# 
# UVM_INFO ApbScoreboard.sv(39) @ 5: uvm_test_top.env_h.scb_h [SB] EXPECTED TRANSACTION: size = 1 | TRANSFER = 0 | RW = 0 | WDATA = 0 | WPADDR = 0 | RPADDR = 0
# ----------------------------------------------INPUT MONITOR-------------------------------------------------------
# --------------------------------------------
# Name                 Type        Size  Value
# --------------------------------------------
# ip_mon_h             ApbSeqItem  -     @685 
#   apb_write_paddr    integral    9     'h0  
#   apb_read_paddr     integral    9     'h0  
#   apb_write_data     integral    8     'h0  
#   transfer           integral    1     'h0  
#   READ_WRITE         integral    1     'h0  
#   apb_read_data_out  integral    8     'h0  
# --------------------------------------------
# WRITE ADDRESS = 000000000  READ ADDRESS =000000000 
# THE RESET IS 0
# ----------------------------------------------INPUT MONITOR-------------------------------------------------------
# UVM_INFO ApbScoreboard.sv(46) @ 5: uvm_test_top.env_h.scb_h [SB] ACTUAL TRANSACTION: size = 1 | TRANSFER = 0 | RW = 0 | WPADDR = 0 | WDATA = 0 | RDATA = 0 | RPADDR = 0
# ----------------------------------------------OUTPUT MONITOR-------------------------------------------------------
# UVM_INFO ApbOpMonitor.sv(43) @ 5: uvm_test_top.env_h.pass_h.op_mon_h [OUTPUT MONITOR] [5] transfer =x , READ_WRITE =x, apb_write_paddr =xxxxxxxxx , apb_write_data =xx , apb_read_paddr =x, apb_read_data=x
# ----------------------------------------------OUTPUT MONITOR-------------------------------------------------------
# UVM_INFO ApbScoreboard.sv(46) @ 15: uvm_test_top.env_h.scb_h [SB] ACTUAL TRANSACTION: size = 1 | TRANSFER = 0 | RW = 0 | WPADDR = 0 | WDATA = 0 | RDATA = 0 | RPADDR = 0
# ----------------------------------------------OUTPUT MONITOR-------------------------------------------------------
# UVM_INFO ApbOpMonitor.sv(43) @ 15: uvm_test_top.env_h.pass_h.op_mon_h [OUTPUT MONITOR] [15] transfer =x , READ_WRITE =x, apb_write_paddr =xxxxxxxxx , apb_write_data =xx , apb_read_paddr =x, apb_read_data=x
# ----------------------------------------------OUTPUT MONITOR-------------------------------------------------------
# UVM_INFO ApbScoreboard.sv(39) @ 15: uvm_test_top.env_h.scb_h [SB] EXPECTED TRANSACTION: size = 1 | TRANSFER = 0 | RW = 0 | WDATA = 0 | WPADDR = 0 | RPADDR = 0
# ----------------------------------------------INPUT MONITOR-------------------------------------------------------
# --------------------------------------------
# Name                 Type        Size  Value
# --------------------------------------------
# ip_mon_h             ApbSeqItem  -     @685 
#   apb_write_paddr    integral    9     'h0  
#   apb_read_paddr     integral    9     'h0  
#   apb_write_data     integral    8     'h0  
#   transfer           integral    1     'h0  
#   READ_WRITE         integral    1     'h0  
#   apb_read_data_out  integral    8     'h0  
# --------------------------------------------
# WRITE ADDRESS = 000000000  READ ADDRESS =000000000 
# THE RESET IS 0
# ----------------------------------------------INPUT MONITOR-------------------------------------------------------
# UVM_INFO ApbDriver.sv(63) @ 25: uvm_test_top.env_h.act_h.drv_h [DRIVER] [25] presetn = 1, transfer = 1, READ_WRITE = 1, apb_write_paddr = 143, apb_write_data = d1, apb_read_paddr = 123
# ---------------------------------DRIVER-------------------
# --------------------------------------------------------------------------------------
# Name                           Type        Size  Value                                
# --------------------------------------------------------------------------------------
# txn                            ApbSeqItem  -     @743                                 
#   apb_write_paddr              integral    9     'h143                                
#   apb_read_paddr               integral    9     'h123                                
#   apb_write_data               integral    8     'hd1                                 
#   transfer                     integral    1     'h1                                  
#   READ_WRITE                   integral    1     'h1                                  
#   apb_read_data_out            integral    8     'h0                                  
#   begin_time                   time        64    15                                   
#   depth                        int         32    'd2                                  
#   parent sequence (name)       string      5     seq_h                                
#   parent sequence (full name)  string      37    uvm_test_top.env_h.act_h.seqr_h.seq_h
#   sequencer                    string      31    uvm_test_top.env_h.act_h.seqr_h      
# --------------------------------------------------------------------------------------
# --------------------------------------DRIVER----------------------------------
# UVM_INFO ApbScoreboard.sv(39) @ 25: uvm_test_top.env_h.scb_h [SB] EXPECTED TRANSACTION: size = 1 | TRANSFER = 0 | RW = 0 | WDATA = 0 | WPADDR = 0 | RPADDR = 0
# ----------------------------------------------INPUT MONITOR-------------------------------------------------------
# --------------------------------------------
# Name                 Type        Size  Value
# --------------------------------------------
# ip_mon_h             ApbSeqItem  -     @685 
#   apb_write_paddr    integral    9     'h0  
#   apb_read_paddr     integral    9     'h0  
#   apb_write_data     integral    8     'h0  
#   transfer           integral    1     'h0  
#   READ_WRITE         integral    1     'h0  
#   apb_read_data_out  integral    8     'h0  
# --------------------------------------------
# WRITE ADDRESS = 000000000  READ ADDRESS =000000000 
# THE RESET IS 1
# ----------------------------------------------INPUT MONITOR-------------------------------------------------------
# UVM_INFO ApbScoreboard.sv(46) @ 25: uvm_test_top.env_h.scb_h [SB] ACTUAL TRANSACTION: size = 1 | TRANSFER = 0 | RW = 0 | WPADDR = 0 | WDATA = 0 | RDATA = 0 | RPADDR = 0
# ----------------------------------------------OUTPUT MONITOR-------------------------------------------------------
# UVM_INFO ApbOpMonitor.sv(43) @ 25: uvm_test_top.env_h.pass_h.op_mon_h [OUTPUT MONITOR] [25] transfer =x , READ_WRITE =x, apb_write_paddr =xxxxxxxxx , apb_write_data =xx , apb_read_paddr =x, apb_read_data=x
# ----------------------------------------------OUTPUT MONITOR-------------------------------------------------------
# READ ADDRESS = 100100011
# SLAVE 2 
# UVM_INFO ApbDriver.sv(63) @ 35: uvm_test_top.env_h.act_h.drv_h [DRIVER] [35] presetn = 1, transfer = 1, READ_WRITE = 1, apb_write_paddr = 143, apb_write_data = d1, apb_read_paddr = 123
# ---------------------------------DRIVER-------------------
# --------------------------------------------------------------------------------------
# Name                           Type        Size  Value                                
# --------------------------------------------------------------------------------------
# txn                            ApbSeqItem  -     @743                                 
#   apb_write_paddr              integral    9     'h143                                
#   apb_read_paddr               integral    9     'h123                                
#   apb_write_data               integral    8     'hd1                                 
#   transfer                     integral    1     'h1                                  
#   READ_WRITE                   integral    1     'h1                                  
#   apb_read_data_out            integral    8     'h0                                  
#   begin_time                   time        64    25                                   
#   end_time                     time        64    25                                   
#   depth                        int         32    'd2                                  
#   parent sequence (name)       string      5     seq_h                                
#   parent sequence (full name)  string      37    uvm_test_top.env_h.act_h.seqr_h.seq_h
#   sequencer                    string      31    uvm_test_top.env_h.act_h.seqr_h      
# --------------------------------------------------------------------------------------
# --------------------------------------DRIVER----------------------------------
# UVM_INFO ApbScoreboard.sv(46) @ 35: uvm_test_top.env_h.scb_h [SB] ACTUAL TRANSACTION: size = 1 | TRANSFER = 1 | RW = 1 | WPADDR = 0 | WDATA = 0 | RDATA = 0 | RPADDR = 123
# ----------------------------------------------OUTPUT MONITOR-------------------------------------------------------
# UVM_INFO ApbOpMonitor.sv(43) @ 35: uvm_test_top.env_h.pass_h.op_mon_h [OUTPUT MONITOR] [35] transfer =1 , READ_WRITE =1, apb_write_paddr =xxxxxxxxx , apb_write_data =xx , apb_read_paddr =100100011, apb_read_data=x
# ----------------------------------------------OUTPUT MONITOR-------------------------------------------------------
# UVM_INFO ApbScoreboard.sv(39) @ 35: uvm_test_top.env_h.scb_h [SB] EXPECTED TRANSACTION: size = 1 | TRANSFER = 1 | RW = 1 | WDATA = 0 | WPADDR = 0 | RPADDR = 123
# ----------------------------------------------INPUT MONITOR-------------------------------------------------------
# --------------------------------------------
# Name                 Type        Size  Value
# --------------------------------------------
# ip_mon_h             ApbSeqItem  -     @685 
#   apb_write_paddr    integral    9     'h0  
#   apb_read_paddr     integral    9     'h123
#   apb_write_data     integral    8     'h0  
#   transfer           integral    1     'h1  
#   READ_WRITE         integral    1     'h1  
#   apb_read_data_out  integral    8     'h0  
# --------------------------------------------
# WRITE ADDRESS = 000000000  READ ADDRESS =100100011 
# THE RESET IS 1
# ----------------------------------------------INPUT MONITOR-------------------------------------------------------
# FOR COMPARING : WRITE DATA =00 READ DATA OUT =xx
# UVM_INFO ApbScoreboard.sv(100) @ 35: uvm_test_top.env_h.scb_h [COMPARE] READ PASS | EXPECTED RDATA = 0  ACTUAL RDATA =0 |EXPECTED  READ ADDR = 123 ACTUAL READ ADDR =123
# READ_ADDRESS_VALIDITY: ASSERTION PASS
# TRANSFER_VALIDITY: ASSERTION PASS
# UVM_INFO ApbDriver.sv(63) @ 45: uvm_test_top.env_h.act_h.drv_h [DRIVER] [45] presetn = 1, transfer = 1, READ_WRITE = 1, apb_write_paddr = 1c5, apb_write_data = 95, apb_read_paddr = 113
# ---------------------------------DRIVER-------------------
# --------------------------------------------------------------------------------------
# Name                           Type        Size  Value                                
# --------------------------------------------------------------------------------------
# txn                            ApbSeqItem  -     @772                                 
#   apb_write_paddr              integral    9     'h1c5                                
#   apb_read_paddr               integral    9     'h113                                
#   apb_write_data               integral    8     'h95                                 
#   transfer                     integral    1     'h1                                  
#   READ_WRITE                   integral    1     'h1                                  
#   apb_read_data_out            integral    8     'h0                                  
#   begin_time                   time        64    35                                   
#   depth                        int         32    'd2                                  
#   parent sequence (name)       string      5     seq_h                                
#   parent sequence (full name)  string      37    uvm_test_top.env_h.act_h.seqr_h.seq_h
#   sequencer                    string      31    uvm_test_top.env_h.act_h.seqr_h      
# --------------------------------------------------------------------------------------
# --------------------------------------DRIVER----------------------------------
# UVM_INFO ApbScoreboard.sv(39) @ 45: uvm_test_top.env_h.scb_h [SB] EXPECTED TRANSACTION: size = 1 | TRANSFER = 1 | RW = 1 | WDATA = 0 | WPADDR = 0 | RPADDR = 123
# ----------------------------------------------INPUT MONITOR-------------------------------------------------------
# --------------------------------------------
# Name                 Type        Size  Value
# --------------------------------------------
# ip_mon_h             ApbSeqItem  -     @685 
#   apb_write_paddr    integral    9     'h0  
#   apb_read_paddr     integral    9     'h123
#   apb_write_data     integral    8     'h0  
#   transfer           integral    1     'h1  
#   READ_WRITE         integral    1     'h1  
#   apb_read_data_out  integral    8     'h0  
# --------------------------------------------
# WRITE ADDRESS = 000000000  READ ADDRESS =100100011 
# THE RESET IS 1
# ----------------------------------------------INPUT MONITOR-------------------------------------------------------
# UVM_INFO ApbScoreboard.sv(46) @ 45: uvm_test_top.env_h.scb_h [SB] ACTUAL TRANSACTION: size = 1 | TRANSFER = 1 | RW = 1 | WPADDR = 0 | WDATA = 0 | RDATA = 0 | RPADDR = 123
# ----------------------------------------------OUTPUT MONITOR-------------------------------------------------------
# UVM_INFO ApbOpMonitor.sv(43) @ 45: uvm_test_top.env_h.pass_h.op_mon_h [OUTPUT MONITOR] [45] transfer =1 , READ_WRITE =1, apb_write_paddr =xxxxxxxxx , apb_write_data =xx , apb_read_paddr =100100011, apb_read_data=x
# ----------------------------------------------OUTPUT MONITOR-------------------------------------------------------
# READ ADDRESS = 100010011
# SLAVE 2 
# FOR COMPARING : WRITE DATA =00 READ DATA OUT =xx
# UVM_INFO ApbScoreboard.sv(100) @ 45: uvm_test_top.env_h.scb_h [COMPARE] READ PASS | EXPECTED RDATA = 0  ACTUAL RDATA =0 |EXPECTED  READ ADDR = 123 ACTUAL READ ADDR =123
# READ_ADDRESS_VALIDITY: ASSERTION PASS
# TRANSFER_VALIDITY: ASSERTION PASS
# UVM_INFO ApbDriver.sv(63) @ 55: uvm_test_top.env_h.act_h.drv_h [DRIVER] [55] presetn = 1, transfer = 1, READ_WRITE = 1, apb_write_paddr = 1c5, apb_write_data = 95, apb_read_paddr = 113
# ---------------------------------DRIVER-------------------
# --------------------------------------------------------------------------------------
# Name                           Type        Size  Value                                
# --------------------------------------------------------------------------------------
# txn                            ApbSeqItem  -     @772                                 
#   apb_write_paddr              integral    9     'h1c5                                
#   apb_read_paddr               integral    9     'h113                                
#   apb_write_data               integral    8     'h95                                 
#   transfer                     integral    1     'h1                                  
#   READ_WRITE                   integral    1     'h1                                  
#   apb_read_data_out            integral    8     'h0                                  
#   begin_time                   time        64    45                                   
#   end_time                     time        64    45                                   
#   depth                        int         32    'd2                                  
#   parent sequence (name)       string      5     seq_h                                
#   parent sequence (full name)  string      37    uvm_test_top.env_h.act_h.seqr_h.seq_h
#   sequencer                    string      31    uvm_test_top.env_h.act_h.seqr_h      
# --------------------------------------------------------------------------------------
# --------------------------------------DRIVER----------------------------------
# UVM_INFO ApbScoreboard.sv(46) @ 55: uvm_test_top.env_h.scb_h [SB] ACTUAL TRANSACTION: size = 1 | TRANSFER = 1 | RW = 1 | WPADDR = 0 | WDATA = 0 | RDATA = 0 | RPADDR = 113
# ----------------------------------------------OUTPUT MONITOR-------------------------------------------------------
# UVM_INFO ApbOpMonitor.sv(43) @ 55: uvm_test_top.env_h.pass_h.op_mon_h [OUTPUT MONITOR] [55] transfer =1 , READ_WRITE =1, apb_write_paddr =xxxxxxxxx , apb_write_data =xx , apb_read_paddr =100010011, apb_read_data=x
# ----------------------------------------------OUTPUT MONITOR-------------------------------------------------------
# UVM_INFO ApbScoreboard.sv(39) @ 55: uvm_test_top.env_h.scb_h [SB] EXPECTED TRANSACTION: size = 1 | TRANSFER = 1 | RW = 1 | WDATA = 0 | WPADDR = 0 | RPADDR = 113
# ----------------------------------------------INPUT MONITOR-------------------------------------------------------
# --------------------------------------------
# Name                 Type        Size  Value
# --------------------------------------------
# ip_mon_h             ApbSeqItem  -     @685 
#   apb_write_paddr    integral    9     'h0  
#   apb_read_paddr     integral    9     'h113
#   apb_write_data     integral    8     'h0  
#   transfer           integral    1     'h1  
#   READ_WRITE         integral    1     'h1  
#   apb_read_data_out  integral    8     'h0  
# --------------------------------------------
# WRITE ADDRESS = 000000000  READ ADDRESS =100010011 
# THE RESET IS 1
# ----------------------------------------------INPUT MONITOR-------------------------------------------------------
# FOR COMPARING : WRITE DATA =00 READ DATA OUT =xx
# UVM_INFO ApbScoreboard.sv(100) @ 55: uvm_test_top.env_h.scb_h [COMPARE] READ PASS | EXPECTED RDATA = 0  ACTUAL RDATA =0 |EXPECTED  READ ADDR = 113 ACTUAL READ ADDR =113
# READ_ADDRESS_VALIDITY: ASSERTION PASS
# TRANSFER_VALIDITY: ASSERTION PASS
# UVM_INFO ApbDriver.sv(63) @ 65: uvm_test_top.env_h.act_h.drv_h [DRIVER] [65] presetn = 1, transfer = 1, READ_WRITE = 1, apb_write_paddr = 0a6, apb_write_data = 41, apb_read_paddr = 1c7
# ---------------------------------DRIVER-------------------
# --------------------------------------------------------------------------------------
# Name                           Type        Size  Value                                
# --------------------------------------------------------------------------------------
# txn                            ApbSeqItem  -     @776                                 
#   apb_write_paddr              integral    9     'ha6                                 
#   apb_read_paddr               integral    9     'h1c7                                
#   apb_write_data               integral    8     'h41                                 
#   transfer                     integral    1     'h1                                  
#   READ_WRITE                   integral    1     'h1                                  
#   apb_read_data_out            integral    8     'h0                                  
#   begin_time                   time        64    55                                   
#   depth                        int         32    'd2                                  
#   parent sequence (name)       string      5     seq_h                                
#   parent sequence (full name)  string      37    uvm_test_top.env_h.act_h.seqr_h.seq_h
#   sequencer                    string      31    uvm_test_top.env_h.act_h.seqr_h      
# --------------------------------------------------------------------------------------
# --------------------------------------DRIVER----------------------------------
# UVM_INFO ApbScoreboard.sv(39) @ 65: uvm_test_top.env_h.scb_h [SB] EXPECTED TRANSACTION: size = 1 | TRANSFER = 1 | RW = 1 | WDATA = 0 | WPADDR = 0 | RPADDR = 113
# ----------------------------------------------INPUT MONITOR-------------------------------------------------------
# --------------------------------------------
# Name                 Type        Size  Value
# --------------------------------------------
# ip_mon_h             ApbSeqItem  -     @685 
#   apb_write_paddr    integral    9     'h0  
#   apb_read_paddr     integral    9     'h113
#   apb_write_data     integral    8     'h0  
#   transfer           integral    1     'h1  
#   READ_WRITE         integral    1     'h1  
#   apb_read_data_out  integral    8     'h0  
# --------------------------------------------
# WRITE ADDRESS = 000000000  READ ADDRESS =100010011 
# THE RESET IS 1
# ----------------------------------------------INPUT MONITOR-------------------------------------------------------
# UVM_INFO ApbScoreboard.sv(46) @ 65: uvm_test_top.env_h.scb_h [SB] ACTUAL TRANSACTION: size = 1 | TRANSFER = 1 | RW = 1 | WPADDR = 0 | WDATA = 0 | RDATA = 0 | RPADDR = 113
# ----------------------------------------------OUTPUT MONITOR-------------------------------------------------------
# UVM_INFO ApbOpMonitor.sv(43) @ 65: uvm_test_top.env_h.pass_h.op_mon_h [OUTPUT MONITOR] [65] transfer =1 , READ_WRITE =1, apb_write_paddr =xxxxxxxxx , apb_write_data =xx , apb_read_paddr =100010011, apb_read_data=x
# ----------------------------------------------OUTPUT MONITOR-------------------------------------------------------
# READ ADDRESS = 111000111
# SLAVE 2 
# FOR COMPARING : WRITE DATA =00 READ DATA OUT =xx
# UVM_INFO ApbScoreboard.sv(100) @ 65: uvm_test_top.env_h.scb_h [COMPARE] READ PASS | EXPECTED RDATA = 0  ACTUAL RDATA =0 |EXPECTED  READ ADDR = 113 ACTUAL READ ADDR =113
# READ_ADDRESS_VALIDITY: ASSERTION PASS
# TRANSFER_VALIDITY: ASSERTION PASS
# UVM_INFO ApbDriver.sv(63) @ 75: uvm_test_top.env_h.act_h.drv_h [DRIVER] [75] presetn = 1, transfer = 1, READ_WRITE = 1, apb_write_paddr = 0a6, apb_write_data = 41, apb_read_paddr = 1c7
# ---------------------------------DRIVER-------------------
# --------------------------------------------------------------------------------------
# Name                           Type        Size  Value                                
# --------------------------------------------------------------------------------------
# txn                            ApbSeqItem  -     @776                                 
#   apb_write_paddr              integral    9     'ha6                                 
#   apb_read_paddr               integral    9     'h1c7                                
#   apb_write_data               integral    8     'h41                                 
#   transfer                     integral    1     'h1                                  
#   READ_WRITE                   integral    1     'h1                                  
#   apb_read_data_out            integral    8     'h0                                  
#   begin_time                   time        64    65                                   
#   end_time                     time        64    65                                   
#   depth                        int         32    'd2                                  
#   parent sequence (name)       string      5     seq_h                                
#   parent sequence (full name)  string      37    uvm_test_top.env_h.act_h.seqr_h.seq_h
#   sequencer                    string      31    uvm_test_top.env_h.act_h.seqr_h      
# --------------------------------------------------------------------------------------
# --------------------------------------DRIVER----------------------------------
# UVM_INFO ApbScoreboard.sv(46) @ 75: uvm_test_top.env_h.scb_h [SB] ACTUAL TRANSACTION: size = 1 | TRANSFER = 1 | RW = 1 | WPADDR = 0 | WDATA = 0 | RDATA = 0 | RPADDR = 1c7
# ----------------------------------------------OUTPUT MONITOR-------------------------------------------------------
# UVM_INFO ApbOpMonitor.sv(43) @ 75: uvm_test_top.env_h.pass_h.op_mon_h [OUTPUT MONITOR] [75] transfer =1 , READ_WRITE =1, apb_write_paddr =xxxxxxxxx , apb_write_data =xx , apb_read_paddr =111000111, apb_read_data=x
# ----------------------------------------------OUTPUT MONITOR-------------------------------------------------------
# UVM_INFO ApbScoreboard.sv(39) @ 75: uvm_test_top.env_h.scb_h [SB] EXPECTED TRANSACTION: size = 1 | TRANSFER = 1 | RW = 1 | WDATA = 0 | WPADDR = 0 | RPADDR = 1c7
# ----------------------------------------------INPUT MONITOR-------------------------------------------------------
# --------------------------------------------
# Name                 Type        Size  Value
# --------------------------------------------
# ip_mon_h             ApbSeqItem  -     @685 
#   apb_write_paddr    integral    9     'h0  
#   apb_read_paddr     integral    9     'h1c7
#   apb_write_data     integral    8     'h0  
#   transfer           integral    1     'h1  
#   READ_WRITE         integral    1     'h1  
#   apb_read_data_out  integral    8     'h0  
# --------------------------------------------
# WRITE ADDRESS = 000000000  READ ADDRESS =111000111 
# THE RESET IS 1
# ----------------------------------------------INPUT MONITOR-------------------------------------------------------
# FOR COMPARING : WRITE DATA =00 READ DATA OUT =xx
# UVM_INFO ApbScoreboard.sv(100) @ 75: uvm_test_top.env_h.scb_h [COMPARE] READ PASS | EXPECTED RDATA = 0  ACTUAL RDATA =0 |EXPECTED  READ ADDR = 1c7 ACTUAL READ ADDR =1c7
# READ_ADDRESS_VALIDITY: ASSERTION PASS
# TRANSFER_VALIDITY: ASSERTION PASS
# UVM_INFO ApbDriver.sv(63) @ 85: uvm_test_top.env_h.act_h.drv_h [DRIVER] [85] presetn = 1, transfer = 1, READ_WRITE = 1, apb_write_paddr = 1c3, apb_write_data = 8e, apb_read_paddr = 101
# ---------------------------------DRIVER-------------------
# --------------------------------------------------------------------------------------
# Name                           Type        Size  Value                                
# --------------------------------------------------------------------------------------
# txn                            ApbSeqItem  -     @780                                 
#   apb_write_paddr              integral    9     'h1c3                                
#   apb_read_paddr               integral    9     'h101                                
#   apb_write_data               integral    8     'h8e                                 
#   transfer                     integral    1     'h1                                  
#   READ_WRITE                   integral    1     'h1                                  
#   apb_read_data_out            integral    8     'h0                                  
#   begin_time                   time        64    75                                   
#   depth                        int         32    'd2                                  
#   parent sequence (name)       string      5     seq_h                                
#   parent sequence (full name)  string      37    uvm_test_top.env_h.act_h.seqr_h.seq_h
#   sequencer                    string      31    uvm_test_top.env_h.act_h.seqr_h      
# --------------------------------------------------------------------------------------
# --------------------------------------DRIVER----------------------------------
# UVM_INFO ApbScoreboard.sv(39) @ 85: uvm_test_top.env_h.scb_h [SB] EXPECTED TRANSACTION: size = 1 | TRANSFER = 1 | RW = 1 | WDATA = 0 | WPADDR = 0 | RPADDR = 1c7
# ----------------------------------------------INPUT MONITOR-------------------------------------------------------
# --------------------------------------------
# Name                 Type        Size  Value
# --------------------------------------------
# ip_mon_h             ApbSeqItem  -     @685 
#   apb_write_paddr    integral    9     'h0  
#   apb_read_paddr     integral    9     'h1c7
#   apb_write_data     integral    8     'h0  
#   transfer           integral    1     'h1  
#   READ_WRITE         integral    1     'h1  
#   apb_read_data_out  integral    8     'h0  
# --------------------------------------------
# WRITE ADDRESS = 000000000  READ ADDRESS =111000111 
# THE RESET IS 1
# ----------------------------------------------INPUT MONITOR-------------------------------------------------------
# UVM_INFO ApbScoreboard.sv(46) @ 85: uvm_test_top.env_h.scb_h [SB] ACTUAL TRANSACTION: size = 1 | TRANSFER = 1 | RW = 1 | WPADDR = 0 | WDATA = 0 | RDATA = 0 | RPADDR = 1c7
# ----------------------------------------------OUTPUT MONITOR-------------------------------------------------------
# UVM_INFO ApbOpMonitor.sv(43) @ 85: uvm_test_top.env_h.pass_h.op_mon_h [OUTPUT MONITOR] [85] transfer =1 , READ_WRITE =1, apb_write_paddr =xxxxxxxxx , apb_write_data =xx , apb_read_paddr =111000111, apb_read_data=x
# ----------------------------------------------OUTPUT MONITOR-------------------------------------------------------
# READ ADDRESS = 100000001
# SLAVE 2 
# FOR COMPARING : WRITE DATA =00 READ DATA OUT =xx
# UVM_INFO ApbScoreboard.sv(100) @ 85: uvm_test_top.env_h.scb_h [COMPARE] READ PASS | EXPECTED RDATA = 0  ACTUAL RDATA =0 |EXPECTED  READ ADDR = 1c7 ACTUAL READ ADDR =1c7
# READ_ADDRESS_VALIDITY: ASSERTION PASS
# TRANSFER_VALIDITY: ASSERTION PASS
# UVM_INFO ApbDriver.sv(63) @ 95: uvm_test_top.env_h.act_h.drv_h [DRIVER] [95] presetn = 1, transfer = 1, READ_WRITE = 1, apb_write_paddr = 1c3, apb_write_data = 8e, apb_read_paddr = 101
# ---------------------------------DRIVER-------------------
# --------------------------------------------------------------------------------------
# Name                           Type        Size  Value                                
# --------------------------------------------------------------------------------------
# txn                            ApbSeqItem  -     @780                                 
#   apb_write_paddr              integral    9     'h1c3                                
#   apb_read_paddr               integral    9     'h101                                
#   apb_write_data               integral    8     'h8e                                 
#   transfer                     integral    1     'h1                                  
#   READ_WRITE                   integral    1     'h1                                  
#   apb_read_data_out            integral    8     'h0                                  
#   begin_time                   time        64    85                                   
#   end_time                     time        64    85                                   
#   depth                        int         32    'd2                                  
#   parent sequence (name)       string      5     seq_h                                
#   parent sequence (full name)  string      37    uvm_test_top.env_h.act_h.seqr_h.seq_h
#   sequencer                    string      31    uvm_test_top.env_h.act_h.seqr_h      
# --------------------------------------------------------------------------------------
# --------------------------------------DRIVER----------------------------------
# UVM_INFO ApbScoreboard.sv(46) @ 95: uvm_test_top.env_h.scb_h [SB] ACTUAL TRANSACTION: size = 1 | TRANSFER = 1 | RW = 1 | WPADDR = 0 | WDATA = 0 | RDATA = 0 | RPADDR = 101
# ----------------------------------------------OUTPUT MONITOR-------------------------------------------------------
# UVM_INFO ApbOpMonitor.sv(43) @ 95: uvm_test_top.env_h.pass_h.op_mon_h [OUTPUT MONITOR] [95] transfer =1 , READ_WRITE =1, apb_write_paddr =xxxxxxxxx , apb_write_data =xx , apb_read_paddr =100000001, apb_read_data=x
# ----------------------------------------------OUTPUT MONITOR-------------------------------------------------------
# UVM_INFO ApbScoreboard.sv(39) @ 95: uvm_test_top.env_h.scb_h [SB] EXPECTED TRANSACTION: size = 1 | TRANSFER = 1 | RW = 1 | WDATA = 0 | WPADDR = 0 | RPADDR = 101
# ----------------------------------------------INPUT MONITOR-------------------------------------------------------
# --------------------------------------------
# Name                 Type        Size  Value
# --------------------------------------------
# ip_mon_h             ApbSeqItem  -     @685 
#   apb_write_paddr    integral    9     'h0  
#   apb_read_paddr     integral    9     'h101
#   apb_write_data     integral    8     'h0  
#   transfer           integral    1     'h1  
#   READ_WRITE         integral    1     'h1  
#   apb_read_data_out  integral    8     'h0  
# --------------------------------------------
# WRITE ADDRESS = 000000000  READ ADDRESS =100000001 
# THE RESET IS 1
# ----------------------------------------------INPUT MONITOR-------------------------------------------------------
# FOR COMPARING : WRITE DATA =00 READ DATA OUT =xx
# UVM_INFO ApbScoreboard.sv(100) @ 95: uvm_test_top.env_h.scb_h [COMPARE] READ PASS | EXPECTED RDATA = 0  ACTUAL RDATA =0 |EXPECTED  READ ADDR = 101 ACTUAL READ ADDR =101
# READ_ADDRESS_VALIDITY: ASSERTION PASS
# TRANSFER_VALIDITY: ASSERTION PASS
# UVM_INFO ApbDriver.sv(63) @ 105: uvm_test_top.env_h.act_h.drv_h [DRIVER] [105] presetn = 1, transfer = 1, READ_WRITE = 1, apb_write_paddr = 0a8, apb_write_data = f1, apb_read_paddr = 131
# ---------------------------------DRIVER-------------------
# --------------------------------------------------------------------------------------
# Name                           Type        Size  Value                                
# --------------------------------------------------------------------------------------
# txn                            ApbSeqItem  -     @784                                 
#   apb_write_paddr              integral    9     'ha8                                 
#   apb_read_paddr               integral    9     'h131                                
#   apb_write_data               integral    8     'hf1                                 
#   transfer                     integral    1     'h1                                  
#   READ_WRITE                   integral    1     'h1                                  
#   apb_read_data_out            integral    8     'h0                                  
#   begin_time                   time        64    95                                   
#   depth                        int         32    'd2                                  
#   parent sequence (name)       string      5     seq_h                                
#   parent sequence (full name)  string      37    uvm_test_top.env_h.act_h.seqr_h.seq_h
#   sequencer                    string      31    uvm_test_top.env_h.act_h.seqr_h      
# --------------------------------------------------------------------------------------
# --------------------------------------DRIVER----------------------------------
# UVM_INFO ApbScoreboard.sv(39) @ 105: uvm_test_top.env_h.scb_h [SB] EXPECTED TRANSACTION: size = 1 | TRANSFER = 1 | RW = 1 | WDATA = 0 | WPADDR = 0 | RPADDR = 101
# ----------------------------------------------INPUT MONITOR-------------------------------------------------------
# --------------------------------------------
# Name                 Type        Size  Value
# --------------------------------------------
# ip_mon_h             ApbSeqItem  -     @685 
#   apb_write_paddr    integral    9     'h0  
#   apb_read_paddr     integral    9     'h101
#   apb_write_data     integral    8     'h0  
#   transfer           integral    1     'h1  
#   READ_WRITE         integral    1     'h1  
#   apb_read_data_out  integral    8     'h0  
# --------------------------------------------
# WRITE ADDRESS = 000000000  READ ADDRESS =100000001 
# THE RESET IS 1
# ----------------------------------------------INPUT MONITOR-------------------------------------------------------
# UVM_INFO ApbScoreboard.sv(46) @ 105: uvm_test_top.env_h.scb_h [SB] ACTUAL TRANSACTION: size = 1 | TRANSFER = 1 | RW = 1 | WPADDR = 0 | WDATA = 0 | RDATA = 0 | RPADDR = 101
# ----------------------------------------------OUTPUT MONITOR-------------------------------------------------------
# UVM_INFO ApbOpMonitor.sv(43) @ 105: uvm_test_top.env_h.pass_h.op_mon_h [OUTPUT MONITOR] [105] transfer =1 , READ_WRITE =1, apb_write_paddr =xxxxxxxxx , apb_write_data =xx , apb_read_paddr =100000001, apb_read_data=x
# ----------------------------------------------OUTPUT MONITOR-------------------------------------------------------
# READ ADDRESS = 100110001
# SLAVE 2 
# FOR COMPARING : WRITE DATA =00 READ DATA OUT =xx
# UVM_INFO ApbScoreboard.sv(100) @ 105: uvm_test_top.env_h.scb_h [COMPARE] READ PASS | EXPECTED RDATA = 0  ACTUAL RDATA =0 |EXPECTED  READ ADDR = 101 ACTUAL READ ADDR =101
# READ_ADDRESS_VALIDITY: ASSERTION PASS
# TRANSFER_VALIDITY: ASSERTION PASS
# UVM_INFO ApbDriver.sv(63) @ 115: uvm_test_top.env_h.act_h.drv_h [DRIVER] [115] presetn = 1, transfer = 1, READ_WRITE = 1, apb_write_paddr = 0a8, apb_write_data = f1, apb_read_paddr = 131
# ---------------------------------DRIVER-------------------
# --------------------------------------------------------------------------------------
# Name                           Type        Size  Value                                
# --------------------------------------------------------------------------------------
# txn                            ApbSeqItem  -     @784                                 
#   apb_write_paddr              integral    9     'ha8                                 
#   apb_read_paddr               integral    9     'h131                                
#   apb_write_data               integral    8     'hf1                                 
#   transfer                     integral    1     'h1                                  
#   READ_WRITE                   integral    1     'h1                                  
#   apb_read_data_out            integral    8     'h0                                  
#   begin_time                   time        64    105                                  
#   end_time                     time        64    105                                  
#   depth                        int         32    'd2                                  
#   parent sequence (name)       string      5     seq_h                                
#   parent sequence (full name)  string      37    uvm_test_top.env_h.act_h.seqr_h.seq_h
#   sequencer                    string      31    uvm_test_top.env_h.act_h.seqr_h      
# --------------------------------------------------------------------------------------
# --------------------------------------DRIVER----------------------------------
# UVM_INFO ApbScoreboard.sv(46) @ 115: uvm_test_top.env_h.scb_h [SB] ACTUAL TRANSACTION: size = 1 | TRANSFER = 1 | RW = 1 | WPADDR = 0 | WDATA = 0 | RDATA = 0 | RPADDR = 131
# ----------------------------------------------OUTPUT MONITOR-------------------------------------------------------
# UVM_INFO ApbOpMonitor.sv(43) @ 115: uvm_test_top.env_h.pass_h.op_mon_h [OUTPUT MONITOR] [115] transfer =1 , READ_WRITE =1, apb_write_paddr =xxxxxxxxx , apb_write_data =xx , apb_read_paddr =100110001, apb_read_data=x
# ----------------------------------------------OUTPUT MONITOR-------------------------------------------------------
# UVM_INFO ApbScoreboard.sv(39) @ 115: uvm_test_top.env_h.scb_h [SB] EXPECTED TRANSACTION: size = 1 | TRANSFER = 1 | RW = 1 | WDATA = 0 | WPADDR = 0 | RPADDR = 131
# ----------------------------------------------INPUT MONITOR-------------------------------------------------------
# --------------------------------------------
# Name                 Type        Size  Value
# --------------------------------------------
# ip_mon_h             ApbSeqItem  -     @685 
#   apb_write_paddr    integral    9     'h0  
#   apb_read_paddr     integral    9     'h131
#   apb_write_data     integral    8     'h0  
#   transfer           integral    1     'h1  
#   READ_WRITE         integral    1     'h1  
#   apb_read_data_out  integral    8     'h0  
# --------------------------------------------
# WRITE ADDRESS = 000000000  READ ADDRESS =100110001 
# THE RESET IS 1
# ----------------------------------------------INPUT MONITOR-------------------------------------------------------
# FOR COMPARING : WRITE DATA =00 READ DATA OUT =xx
# UVM_INFO ApbScoreboard.sv(100) @ 115: uvm_test_top.env_h.scb_h [COMPARE] READ PASS | EXPECTED RDATA = 0  ACTUAL RDATA =0 |EXPECTED  READ ADDR = 131 ACTUAL READ ADDR =131
# READ_ADDRESS_VALIDITY: ASSERTION PASS
# TRANSFER_VALIDITY: ASSERTION PASS
# UVM_INFO ApbDriver.sv(63) @ 125: uvm_test_top.env_h.act_h.drv_h [DRIVER] [125] presetn = 1, transfer = 1, READ_WRITE = 1, apb_write_paddr = 1ea, apb_write_data = f4, apb_read_paddr = 179
# ---------------------------------DRIVER-------------------
# --------------------------------------------------------------------------------------
# Name                           Type        Size  Value                                
# --------------------------------------------------------------------------------------
# txn                            ApbSeqItem  -     @788                                 
#   apb_write_paddr              integral    9     'h1ea                                
#   apb_read_paddr               integral    9     'h179                                
#   apb_write_data               integral    8     'hf4                                 
#   transfer                     integral    1     'h1                                  
#   READ_WRITE                   integral    1     'h1                                  
#   apb_read_data_out            integral    8     'h0                                  
#   begin_time                   time        64    115                                  
#   depth                        int         32    'd2                                  
#   parent sequence (name)       string      5     seq_h                                
#   parent sequence (full name)  string      37    uvm_test_top.env_h.act_h.seqr_h.seq_h
#   sequencer                    string      31    uvm_test_top.env_h.act_h.seqr_h      
# --------------------------------------------------------------------------------------
# --------------------------------------DRIVER----------------------------------
# UVM_INFO ApbScoreboard.sv(39) @ 125: uvm_test_top.env_h.scb_h [SB] EXPECTED TRANSACTION: size = 1 | TRANSFER = 1 | RW = 1 | WDATA = 0 | WPADDR = 0 | RPADDR = 131
# ----------------------------------------------INPUT MONITOR-------------------------------------------------------
# --------------------------------------------
# Name                 Type        Size  Value
# --------------------------------------------
# ip_mon_h             ApbSeqItem  -     @685 
#   apb_write_paddr    integral    9     'h0  
#   apb_read_paddr     integral    9     'h131
#   apb_write_data     integral    8     'h0  
#   transfer           integral    1     'h1  
#   READ_WRITE         integral    1     'h1  
#   apb_read_data_out  integral    8     'h0  
# --------------------------------------------
# WRITE ADDRESS = 000000000  READ ADDRESS =100110001 
# THE RESET IS 1
# ----------------------------------------------INPUT MONITOR-------------------------------------------------------
# UVM_INFO ApbScoreboard.sv(46) @ 125: uvm_test_top.env_h.scb_h [SB] ACTUAL TRANSACTION: size = 1 | TRANSFER = 1 | RW = 1 | WPADDR = 0 | WDATA = 0 | RDATA = 0 | RPADDR = 131
# ----------------------------------------------OUTPUT MONITOR-------------------------------------------------------
# UVM_INFO ApbOpMonitor.sv(43) @ 125: uvm_test_top.env_h.pass_h.op_mon_h [OUTPUT MONITOR] [125] transfer =1 , READ_WRITE =1, apb_write_paddr =xxxxxxxxx , apb_write_data =xx , apb_read_paddr =100110001, apb_read_data=x
# ----------------------------------------------OUTPUT MONITOR-------------------------------------------------------
# READ ADDRESS = 101111001
# SLAVE 2 
# FOR COMPARING : WRITE DATA =00 READ DATA OUT =xx
# UVM_INFO ApbScoreboard.sv(100) @ 125: uvm_test_top.env_h.scb_h [COMPARE] READ PASS | EXPECTED RDATA = 0  ACTUAL RDATA =0 |EXPECTED  READ ADDR = 131 ACTUAL READ ADDR =131
# READ_ADDRESS_VALIDITY: ASSERTION PASS
# TRANSFER_VALIDITY: ASSERTION PASS
# UVM_INFO ApbDriver.sv(63) @ 135: uvm_test_top.env_h.act_h.drv_h [DRIVER] [135] presetn = 1, transfer = 1, READ_WRITE = 1, apb_write_paddr = 1ea, apb_write_data = f4, apb_read_paddr = 179
# ---------------------------------DRIVER-------------------
# --------------------------------------------------------------------------------------
# Name                           Type        Size  Value                                
# --------------------------------------------------------------------------------------
# txn                            ApbSeqItem  -     @788                                 
#   apb_write_paddr              integral    9     'h1ea                                
#   apb_read_paddr               integral    9     'h179                                
#   apb_write_data               integral    8     'hf4                                 
#   transfer                     integral    1     'h1                                  
#   READ_WRITE                   integral    1     'h1                                  
#   apb_read_data_out            integral    8     'h0                                  
#   begin_time                   time        64    125                                  
#   end_time                     time        64    125                                  
#   depth                        int         32    'd2                                  
#   parent sequence (name)       string      5     seq_h                                
#   parent sequence (full name)  string      37    uvm_test_top.env_h.act_h.seqr_h.seq_h
#   sequencer                    string      31    uvm_test_top.env_h.act_h.seqr_h      
# --------------------------------------------------------------------------------------
# --------------------------------------DRIVER----------------------------------
# UVM_INFO ApbScoreboard.sv(46) @ 135: uvm_test_top.env_h.scb_h [SB] ACTUAL TRANSACTION: size = 1 | TRANSFER = 1 | RW = 1 | WPADDR = 0 | WDATA = 0 | RDATA = 0 | RPADDR = 179
# ----------------------------------------------OUTPUT MONITOR-------------------------------------------------------
# UVM_INFO ApbOpMonitor.sv(43) @ 135: uvm_test_top.env_h.pass_h.op_mon_h [OUTPUT MONITOR] [135] transfer =1 , READ_WRITE =1, apb_write_paddr =xxxxxxxxx , apb_write_data =xx , apb_read_paddr =101111001, apb_read_data=x
# ----------------------------------------------OUTPUT MONITOR-------------------------------------------------------
# UVM_INFO ApbScoreboard.sv(39) @ 135: uvm_test_top.env_h.scb_h [SB] EXPECTED TRANSACTION: size = 1 | TRANSFER = 1 | RW = 1 | WDATA = 0 | WPADDR = 0 | RPADDR = 179
# ----------------------------------------------INPUT MONITOR-------------------------------------------------------
# --------------------------------------------
# Name                 Type        Size  Value
# --------------------------------------------
# ip_mon_h             ApbSeqItem  -     @685 
#   apb_write_paddr    integral    9     'h0  
#   apb_read_paddr     integral    9     'h179
#   apb_write_data     integral    8     'h0  
#   transfer           integral    1     'h1  
#   READ_WRITE         integral    1     'h1  
#   apb_read_data_out  integral    8     'h0  
# --------------------------------------------
# WRITE ADDRESS = 000000000  READ ADDRESS =101111001 
# THE RESET IS 1
# ----------------------------------------------INPUT MONITOR-------------------------------------------------------
# FOR COMPARING : WRITE DATA =00 READ DATA OUT =xx
# UVM_INFO ApbScoreboard.sv(100) @ 135: uvm_test_top.env_h.scb_h [COMPARE] READ PASS | EXPECTED RDATA = 0  ACTUAL RDATA =0 |EXPECTED  READ ADDR = 179 ACTUAL READ ADDR =179
# READ_ADDRESS_VALIDITY: ASSERTION PASS
# TRANSFER_VALIDITY: ASSERTION PASS
# UVM_INFO ApbDriver.sv(63) @ 145: uvm_test_top.env_h.act_h.drv_h [DRIVER] [145] presetn = 1, transfer = 1, READ_WRITE = 1, apb_write_paddr = 038, apb_write_data = 30, apb_read_paddr = 1da
# ---------------------------------DRIVER-------------------
# --------------------------------------------------------------------------------------
# Name                           Type        Size  Value                                
# --------------------------------------------------------------------------------------
# txn                            ApbSeqItem  -     @792                                 
#   apb_write_paddr              integral    9     'h38                                 
#   apb_read_paddr               integral    9     'h1da                                
#   apb_write_data               integral    8     'h30                                 
#   transfer                     integral    1     'h1                                  
#   READ_WRITE                   integral    1     'h1                                  
#   apb_read_data_out            integral    8     'h0                                  
#   begin_time                   time        64    135                                  
#   depth                        int         32    'd2                                  
#   parent sequence (name)       string      5     seq_h                                
#   parent sequence (full name)  string      37    uvm_test_top.env_h.act_h.seqr_h.seq_h
#   sequencer                    string      31    uvm_test_top.env_h.act_h.seqr_h      
# --------------------------------------------------------------------------------------
# --------------------------------------DRIVER----------------------------------
# UVM_INFO ApbScoreboard.sv(39) @ 145: uvm_test_top.env_h.scb_h [SB] EXPECTED TRANSACTION: size = 1 | TRANSFER = 1 | RW = 1 | WDATA = 0 | WPADDR = 0 | RPADDR = 179
# ----------------------------------------------INPUT MONITOR-------------------------------------------------------
# --------------------------------------------
# Name                 Type        Size  Value
# --------------------------------------------
# ip_mon_h             ApbSeqItem  -     @685 
#   apb_write_paddr    integral    9     'h0  
#   apb_read_paddr     integral    9     'h179
#   apb_write_data     integral    8     'h0  
#   transfer           integral    1     'h1  
#   READ_WRITE         integral    1     'h1  
#   apb_read_data_out  integral    8     'h0  
# --------------------------------------------
# WRITE ADDRESS = 000000000  READ ADDRESS =101111001 
# THE RESET IS 1
# ----------------------------------------------INPUT MONITOR-------------------------------------------------------
# UVM_INFO ApbScoreboard.sv(46) @ 145: uvm_test_top.env_h.scb_h [SB] ACTUAL TRANSACTION: size = 1 | TRANSFER = 1 | RW = 1 | WPADDR = 0 | WDATA = 0 | RDATA = 0 | RPADDR = 179
# ----------------------------------------------OUTPUT MONITOR-------------------------------------------------------
# UVM_INFO ApbOpMonitor.sv(43) @ 145: uvm_test_top.env_h.pass_h.op_mon_h [OUTPUT MONITOR] [145] transfer =1 , READ_WRITE =1, apb_write_paddr =xxxxxxxxx , apb_write_data =xx , apb_read_paddr =101111001, apb_read_data=x
# ----------------------------------------------OUTPUT MONITOR-------------------------------------------------------
# READ ADDRESS = 111011010
# SLAVE 2 
# FOR COMPARING : WRITE DATA =00 READ DATA OUT =xx
# UVM_INFO ApbScoreboard.sv(100) @ 145: uvm_test_top.env_h.scb_h [COMPARE] READ PASS | EXPECTED RDATA = 0  ACTUAL RDATA =0 |EXPECTED  READ ADDR = 179 ACTUAL READ ADDR =179
# READ_ADDRESS_VALIDITY: ASSERTION PASS
# TRANSFER_VALIDITY: ASSERTION PASS
# UVM_INFO ApbDriver.sv(63) @ 155: uvm_test_top.env_h.act_h.drv_h [DRIVER] [155] presetn = 1, transfer = 1, READ_WRITE = 1, apb_write_paddr = 038, apb_write_data = 30, apb_read_paddr = 1da
# ---------------------------------DRIVER-------------------
# --------------------------------------------------------------------------------------
# Name                           Type        Size  Value                                
# --------------------------------------------------------------------------------------
# txn                            ApbSeqItem  -     @792                                 
#   apb_write_paddr              integral    9     'h38                                 
#   apb_read_paddr               integral    9     'h1da                                
#   apb_write_data               integral    8     'h30                                 
#   transfer                     integral    1     'h1                                  
#   READ_WRITE                   integral    1     'h1                                  
#   apb_read_data_out            integral    8     'h0                                  
#   begin_time                   time        64    145                                  
#   end_time                     time        64    145                                  
#   depth                        int         32    'd2                                  
#   parent sequence (name)       string      5     seq_h                                
#   parent sequence (full name)  string      37    uvm_test_top.env_h.act_h.seqr_h.seq_h
#   sequencer                    string      31    uvm_test_top.env_h.act_h.seqr_h      
# --------------------------------------------------------------------------------------
# --------------------------------------DRIVER----------------------------------
# UVM_INFO ApbScoreboard.sv(46) @ 155: uvm_test_top.env_h.scb_h [SB] ACTUAL TRANSACTION: size = 1 | TRANSFER = 1 | RW = 1 | WPADDR = 0 | WDATA = 0 | RDATA = 0 | RPADDR = 1da
# ----------------------------------------------OUTPUT MONITOR-------------------------------------------------------
# UVM_INFO ApbOpMonitor.sv(43) @ 155: uvm_test_top.env_h.pass_h.op_mon_h [OUTPUT MONITOR] [155] transfer =1 , READ_WRITE =1, apb_write_paddr =xxxxxxxxx , apb_write_data =xx , apb_read_paddr =111011010, apb_read_data=x
# ----------------------------------------------OUTPUT MONITOR-------------------------------------------------------
# UVM_INFO ApbScoreboard.sv(39) @ 155: uvm_test_top.env_h.scb_h [SB] EXPECTED TRANSACTION: size = 1 | TRANSFER = 1 | RW = 1 | WDATA = 0 | WPADDR = 0 | RPADDR = 1da
# ----------------------------------------------INPUT MONITOR-------------------------------------------------------
# --------------------------------------------
# Name                 Type        Size  Value
# --------------------------------------------
# ip_mon_h             ApbSeqItem  -     @685 
#   apb_write_paddr    integral    9     'h0  
#   apb_read_paddr     integral    9     'h1da
#   apb_write_data     integral    8     'h0  
#   transfer           integral    1     'h1  
#   READ_WRITE         integral    1     'h1  
#   apb_read_data_out  integral    8     'h0  
# --------------------------------------------
# WRITE ADDRESS = 000000000  READ ADDRESS =111011010 
# THE RESET IS 1
# ----------------------------------------------INPUT MONITOR-------------------------------------------------------
# FOR COMPARING : WRITE DATA =00 READ DATA OUT =xx
# UVM_INFO ApbScoreboard.sv(100) @ 155: uvm_test_top.env_h.scb_h [COMPARE] READ PASS | EXPECTED RDATA = 0  ACTUAL RDATA =0 |EXPECTED  READ ADDR = 1da ACTUAL READ ADDR =1da
# READ_ADDRESS_VALIDITY: ASSERTION PASS
# TRANSFER_VALIDITY: ASSERTION PASS
# UVM_INFO ApbDriver.sv(63) @ 165: uvm_test_top.env_h.act_h.drv_h [DRIVER] [165] presetn = 1, transfer = 1, READ_WRITE = 1, apb_write_paddr = 08d, apb_write_data = 12, apb_read_paddr = 15a
# ---------------------------------DRIVER-------------------
# --------------------------------------------------------------------------------------
# Name                           Type        Size  Value                                
# --------------------------------------------------------------------------------------
# txn                            ApbSeqItem  -     @796                                 
#   apb_write_paddr              integral    9     'h8d                                 
#   apb_read_paddr               integral    9     'h15a                                
#   apb_write_data               integral    8     'h12                                 
#   transfer                     integral    1     'h1                                  
#   READ_WRITE                   integral    1     'h1                                  
#   apb_read_data_out            integral    8     'h0                                  
#   begin_time                   time        64    155                                  
#   depth                        int         32    'd2                                  
#   parent sequence (name)       string      5     seq_h                                
#   parent sequence (full name)  string      37    uvm_test_top.env_h.act_h.seqr_h.seq_h
#   sequencer                    string      31    uvm_test_top.env_h.act_h.seqr_h      
# --------------------------------------------------------------------------------------
# --------------------------------------DRIVER----------------------------------
# UVM_INFO ApbScoreboard.sv(39) @ 165: uvm_test_top.env_h.scb_h [SB] EXPECTED TRANSACTION: size = 1 | TRANSFER = 1 | RW = 1 | WDATA = 0 | WPADDR = 0 | RPADDR = 1da
# ----------------------------------------------INPUT MONITOR-------------------------------------------------------
# --------------------------------------------
# Name                 Type        Size  Value
# --------------------------------------------
# ip_mon_h             ApbSeqItem  -     @685 
#   apb_write_paddr    integral    9     'h0  
#   apb_read_paddr     integral    9     'h1da
#   apb_write_data     integral    8     'h0  
#   transfer           integral    1     'h1  
#   READ_WRITE         integral    1     'h1  
#   apb_read_data_out  integral    8     'h0  
# --------------------------------------------
# WRITE ADDRESS = 000000000  READ ADDRESS =111011010 
# THE RESET IS 1
# ----------------------------------------------INPUT MONITOR-------------------------------------------------------
# UVM_INFO ApbScoreboard.sv(46) @ 165: uvm_test_top.env_h.scb_h [SB] ACTUAL TRANSACTION: size = 1 | TRANSFER = 1 | RW = 1 | WPADDR = 0 | WDATA = 0 | RDATA = 0 | RPADDR = 1da
# ----------------------------------------------OUTPUT MONITOR-------------------------------------------------------
# UVM_INFO ApbOpMonitor.sv(43) @ 165: uvm_test_top.env_h.pass_h.op_mon_h [OUTPUT MONITOR] [165] transfer =1 , READ_WRITE =1, apb_write_paddr =xxxxxxxxx , apb_write_data =xx , apb_read_paddr =111011010, apb_read_data=x
# ----------------------------------------------OUTPUT MONITOR-------------------------------------------------------
# READ ADDRESS = 101011010
# SLAVE 2 
# FOR COMPARING : WRITE DATA =00 READ DATA OUT =xx
# UVM_INFO ApbScoreboard.sv(100) @ 165: uvm_test_top.env_h.scb_h [COMPARE] READ PASS | EXPECTED RDATA = 0  ACTUAL RDATA =0 |EXPECTED  READ ADDR = 1da ACTUAL READ ADDR =1da
# READ_ADDRESS_VALIDITY: ASSERTION PASS
# TRANSFER_VALIDITY: ASSERTION PASS
# UVM_INFO ApbDriver.sv(63) @ 175: uvm_test_top.env_h.act_h.drv_h [DRIVER] [175] presetn = 1, transfer = 1, READ_WRITE = 1, apb_write_paddr = 08d, apb_write_data = 12, apb_read_paddr = 15a
# ---------------------------------DRIVER-------------------
# --------------------------------------------------------------------------------------
# Name                           Type        Size  Value                                
# --------------------------------------------------------------------------------------
# txn                            ApbSeqItem  -     @796                                 
#   apb_write_paddr              integral    9     'h8d                                 
#   apb_read_paddr               integral    9     'h15a                                
#   apb_write_data               integral    8     'h12                                 
#   transfer                     integral    1     'h1                                  
#   READ_WRITE                   integral    1     'h1                                  
#   apb_read_data_out            integral    8     'h0                                  
#   begin_time                   time        64    165                                  
#   end_time                     time        64    165                                  
#   depth                        int         32    'd2                                  
#   parent sequence (name)       string      5     seq_h                                
#   parent sequence (full name)  string      37    uvm_test_top.env_h.act_h.seqr_h.seq_h
#   sequencer                    string      31    uvm_test_top.env_h.act_h.seqr_h      
# --------------------------------------------------------------------------------------
# --------------------------------------DRIVER----------------------------------
# UVM_INFO ApbScoreboard.sv(46) @ 175: uvm_test_top.env_h.scb_h [SB] ACTUAL TRANSACTION: size = 1 | TRANSFER = 1 | RW = 1 | WPADDR = 0 | WDATA = 0 | RDATA = 0 | RPADDR = 15a
# ----------------------------------------------OUTPUT MONITOR-------------------------------------------------------
# UVM_INFO ApbOpMonitor.sv(43) @ 175: uvm_test_top.env_h.pass_h.op_mon_h [OUTPUT MONITOR] [175] transfer =1 , READ_WRITE =1, apb_write_paddr =xxxxxxxxx , apb_write_data =xx , apb_read_paddr =101011010, apb_read_data=x
# ----------------------------------------------OUTPUT MONITOR-------------------------------------------------------
# UVM_INFO ApbScoreboard.sv(39) @ 175: uvm_test_top.env_h.scb_h [SB] EXPECTED TRANSACTION: size = 1 | TRANSFER = 1 | RW = 1 | WDATA = 0 | WPADDR = 0 | RPADDR = 15a
# ----------------------------------------------INPUT MONITOR-------------------------------------------------------
# --------------------------------------------
# Name                 Type        Size  Value
# --------------------------------------------
# ip_mon_h             ApbSeqItem  -     @685 
#   apb_write_paddr    integral    9     'h0  
#   apb_read_paddr     integral    9     'h15a
#   apb_write_data     integral    8     'h0  
#   transfer           integral    1     'h1  
#   READ_WRITE         integral    1     'h1  
#   apb_read_data_out  integral    8     'h0  
# --------------------------------------------
# WRITE ADDRESS = 000000000  READ ADDRESS =101011010 
# THE RESET IS 1
# ----------------------------------------------INPUT MONITOR-------------------------------------------------------
# FOR COMPARING : WRITE DATA =00 READ DATA OUT =xx
# UVM_INFO ApbScoreboard.sv(100) @ 175: uvm_test_top.env_h.scb_h [COMPARE] READ PASS | EXPECTED RDATA = 0  ACTUAL RDATA =0 |EXPECTED  READ ADDR = 15a ACTUAL READ ADDR =15a
# READ_ADDRESS_VALIDITY: ASSERTION PASS
# TRANSFER_VALIDITY: ASSERTION PASS
# UVM_INFO ApbDriver.sv(63) @ 185: uvm_test_top.env_h.act_h.drv_h [DRIVER] [185] presetn = 1, transfer = 1, READ_WRITE = 1, apb_write_paddr = 07e, apb_write_data = 33, apb_read_paddr = 1e5
# ---------------------------------DRIVER-------------------
# --------------------------------------------------------------------------------------
# Name                           Type        Size  Value                                
# --------------------------------------------------------------------------------------
# txn                            ApbSeqItem  -     @800                                 
#   apb_write_paddr              integral    9     'h7e                                 
#   apb_read_paddr               integral    9     'h1e5                                
#   apb_write_data               integral    8     'h33                                 
#   transfer                     integral    1     'h1                                  
#   READ_WRITE                   integral    1     'h1                                  
#   apb_read_data_out            integral    8     'h0                                  
#   begin_time                   time        64    175                                  
#   depth                        int         32    'd2                                  
#   parent sequence (name)       string      5     seq_h                                
#   parent sequence (full name)  string      37    uvm_test_top.env_h.act_h.seqr_h.seq_h
#   sequencer                    string      31    uvm_test_top.env_h.act_h.seqr_h      
# --------------------------------------------------------------------------------------
# --------------------------------------DRIVER----------------------------------
# UVM_INFO ApbScoreboard.sv(39) @ 185: uvm_test_top.env_h.scb_h [SB] EXPECTED TRANSACTION: size = 1 | TRANSFER = 1 | RW = 1 | WDATA = 0 | WPADDR = 0 | RPADDR = 15a
# ----------------------------------------------INPUT MONITOR-------------------------------------------------------
# --------------------------------------------
# Name                 Type        Size  Value
# --------------------------------------------
# ip_mon_h             ApbSeqItem  -     @685 
#   apb_write_paddr    integral    9     'h0  
#   apb_read_paddr     integral    9     'h15a
#   apb_write_data     integral    8     'h0  
#   transfer           integral    1     'h1  
#   READ_WRITE         integral    1     'h1  
#   apb_read_data_out  integral    8     'h0  
# --------------------------------------------
# WRITE ADDRESS = 000000000  READ ADDRESS =101011010 
# THE RESET IS 1
# ----------------------------------------------INPUT MONITOR-------------------------------------------------------
# UVM_INFO ApbScoreboard.sv(46) @ 185: uvm_test_top.env_h.scb_h [SB] ACTUAL TRANSACTION: size = 1 | TRANSFER = 1 | RW = 1 | WPADDR = 0 | WDATA = 0 | RDATA = 0 | RPADDR = 15a
# ----------------------------------------------OUTPUT MONITOR-------------------------------------------------------
# UVM_INFO ApbOpMonitor.sv(43) @ 185: uvm_test_top.env_h.pass_h.op_mon_h [OUTPUT MONITOR] [185] transfer =1 , READ_WRITE =1, apb_write_paddr =xxxxxxxxx , apb_write_data =xx , apb_read_paddr =101011010, apb_read_data=x
# ----------------------------------------------OUTPUT MONITOR-------------------------------------------------------
# READ ADDRESS = 111100101
# SLAVE 2 
# FOR COMPARING : WRITE DATA =00 READ DATA OUT =xx
# UVM_INFO ApbScoreboard.sv(100) @ 185: uvm_test_top.env_h.scb_h [COMPARE] READ PASS | EXPECTED RDATA = 0  ACTUAL RDATA =0 |EXPECTED  READ ADDR = 15a ACTUAL READ ADDR =15a
# READ_ADDRESS_VALIDITY: ASSERTION PASS
# TRANSFER_VALIDITY: ASSERTION PASS
# UVM_INFO ApbDriver.sv(63) @ 195: uvm_test_top.env_h.act_h.drv_h [DRIVER] [195] presetn = 1, transfer = 1, READ_WRITE = 1, apb_write_paddr = 07e, apb_write_data = 33, apb_read_paddr = 1e5
# ---------------------------------DRIVER-------------------
# --------------------------------------------------------------------------------------
# Name                           Type        Size  Value                                
# --------------------------------------------------------------------------------------
# txn                            ApbSeqItem  -     @800                                 
#   apb_write_paddr              integral    9     'h7e                                 
#   apb_read_paddr               integral    9     'h1e5                                
#   apb_write_data               integral    8     'h33                                 
#   transfer                     integral    1     'h1                                  
#   READ_WRITE                   integral    1     'h1                                  
#   apb_read_data_out            integral    8     'h0                                  
#   begin_time                   time        64    185                                  
#   end_time                     time        64    185                                  
#   depth                        int         32    'd2                                  
#   parent sequence (name)       string      5     seq_h                                
#   parent sequence (full name)  string      37    uvm_test_top.env_h.act_h.seqr_h.seq_h
#   sequencer                    string      31    uvm_test_top.env_h.act_h.seqr_h      
# --------------------------------------------------------------------------------------
# --------------------------------------DRIVER----------------------------------
# UVM_INFO ApbScoreboard.sv(46) @ 195: uvm_test_top.env_h.scb_h [SB] ACTUAL TRANSACTION: size = 1 | TRANSFER = 1 | RW = 1 | WPADDR = 0 | WDATA = 0 | RDATA = 0 | RPADDR = 1e5
# ----------------------------------------------OUTPUT MONITOR-------------------------------------------------------
# UVM_INFO ApbOpMonitor.sv(43) @ 195: uvm_test_top.env_h.pass_h.op_mon_h [OUTPUT MONITOR] [195] transfer =1 , READ_WRITE =1, apb_write_paddr =xxxxxxxxx , apb_write_data =xx , apb_read_paddr =111100101, apb_read_data=x
# ----------------------------------------------OUTPUT MONITOR-------------------------------------------------------
# UVM_INFO ApbScoreboard.sv(39) @ 195: uvm_test_top.env_h.scb_h [SB] EXPECTED TRANSACTION: size = 1 | TRANSFER = 1 | RW = 1 | WDATA = 0 | WPADDR = 0 | RPADDR = 1e5
# ----------------------------------------------INPUT MONITOR-------------------------------------------------------
# --------------------------------------------
# Name                 Type        Size  Value
# --------------------------------------------
# ip_mon_h             ApbSeqItem  -     @685 
#   apb_write_paddr    integral    9     'h0  
#   apb_read_paddr     integral    9     'h1e5
#   apb_write_data     integral    8     'h0  
#   transfer           integral    1     'h1  
#   READ_WRITE         integral    1     'h1  
#   apb_read_data_out  integral    8     'h0  
# --------------------------------------------
# WRITE ADDRESS = 000000000  READ ADDRESS =111100101 
# THE RESET IS 1
# ----------------------------------------------INPUT MONITOR-------------------------------------------------------
# FOR COMPARING : WRITE DATA =00 READ DATA OUT =xx
# UVM_INFO ApbScoreboard.sv(100) @ 195: uvm_test_top.env_h.scb_h [COMPARE] READ PASS | EXPECTED RDATA = 0  ACTUAL RDATA =0 |EXPECTED  READ ADDR = 1e5 ACTUAL READ ADDR =1e5
# READ_ADDRESS_VALIDITY: ASSERTION PASS
# TRANSFER_VALIDITY: ASSERTION PASS
# UVM_INFO ApbDriver.sv(63) @ 205: uvm_test_top.env_h.act_h.drv_h [DRIVER] [205] presetn = 1, transfer = 1, READ_WRITE = 1, apb_write_paddr = 04d, apb_write_data = 01, apb_read_paddr = 102
# ---------------------------------DRIVER-------------------
# --------------------------------------------------------------------------------------
# Name                           Type        Size  Value                                
# --------------------------------------------------------------------------------------
# txn                            ApbSeqItem  -     @804                                 
#   apb_write_paddr              integral    9     'h4d                                 
#   apb_read_paddr               integral    9     'h102                                
#   apb_write_data               integral    8     'h1                                  
#   transfer                     integral    1     'h1                                  
#   READ_WRITE                   integral    1     'h1                                  
#   apb_read_data_out            integral    8     'h0                                  
#   begin_time                   time        64    195                                  
#   depth                        int         32    'd2                                  
#   parent sequence (name)       string      5     seq_h                                
#   parent sequence (full name)  string      37    uvm_test_top.env_h.act_h.seqr_h.seq_h
#   sequencer                    string      31    uvm_test_top.env_h.act_h.seqr_h      
# --------------------------------------------------------------------------------------
# --------------------------------------DRIVER----------------------------------
# UVM_INFO ApbScoreboard.sv(39) @ 205: uvm_test_top.env_h.scb_h [SB] EXPECTED TRANSACTION: size = 1 | TRANSFER = 1 | RW = 1 | WDATA = 0 | WPADDR = 0 | RPADDR = 1e5
# ----------------------------------------------INPUT MONITOR-------------------------------------------------------
# --------------------------------------------
# Name                 Type        Size  Value
# --------------------------------------------
# ip_mon_h             ApbSeqItem  -     @685 
#   apb_write_paddr    integral    9     'h0  
#   apb_read_paddr     integral    9     'h1e5
#   apb_write_data     integral    8     'h0  
#   transfer           integral    1     'h1  
#   READ_WRITE         integral    1     'h1  
#   apb_read_data_out  integral    8     'h0  
# --------------------------------------------
# WRITE ADDRESS = 000000000  READ ADDRESS =111100101 
# THE RESET IS 1
# ----------------------------------------------INPUT MONITOR-------------------------------------------------------
# UVM_INFO ApbScoreboard.sv(46) @ 205: uvm_test_top.env_h.scb_h [SB] ACTUAL TRANSACTION: size = 1 | TRANSFER = 1 | RW = 1 | WPADDR = 0 | WDATA = 0 | RDATA = 0 | RPADDR = 1e5
# ----------------------------------------------OUTPUT MONITOR-------------------------------------------------------
# UVM_INFO ApbOpMonitor.sv(43) @ 205: uvm_test_top.env_h.pass_h.op_mon_h [OUTPUT MONITOR] [205] transfer =1 , READ_WRITE =1, apb_write_paddr =xxxxxxxxx , apb_write_data =xx , apb_read_paddr =111100101, apb_read_data=x
# ----------------------------------------------OUTPUT MONITOR-------------------------------------------------------
# READ ADDRESS = 100000010
# SLAVE 2 
# FOR COMPARING : WRITE DATA =00 READ DATA OUT =xx
# UVM_INFO ApbScoreboard.sv(100) @ 205: uvm_test_top.env_h.scb_h [COMPARE] READ PASS | EXPECTED RDATA = 0  ACTUAL RDATA =0 |EXPECTED  READ ADDR = 1e5 ACTUAL READ ADDR =1e5
# READ_ADDRESS_VALIDITY: ASSERTION PASS
# TRANSFER_VALIDITY: ASSERTION PASS
# UVM_INFO ApbDriver.sv(63) @ 215: uvm_test_top.env_h.act_h.drv_h [DRIVER] [215] presetn = 1, transfer = 1, READ_WRITE = 1, apb_write_paddr = 04d, apb_write_data = 01, apb_read_paddr = 102
# ---------------------------------DRIVER-------------------
# --------------------------------------------------------------------------------------
# Name                           Type        Size  Value                                
# --------------------------------------------------------------------------------------
# txn                            ApbSeqItem  -     @804                                 
#   apb_write_paddr              integral    9     'h4d                                 
#   apb_read_paddr               integral    9     'h102                                
#   apb_write_data               integral    8     'h1                                  
#   transfer                     integral    1     'h1                                  
#   READ_WRITE                   integral    1     'h1                                  
#   apb_read_data_out            integral    8     'h0                                  
#   begin_time                   time        64    205                                  
#   end_time                     time        64    205                                  
#   depth                        int         32    'd2                                  
#   parent sequence (name)       string      5     seq_h                                
#   parent sequence (full name)  string      37    uvm_test_top.env_h.act_h.seqr_h.seq_h
#   sequencer                    string      31    uvm_test_top.env_h.act_h.seqr_h      
# --------------------------------------------------------------------------------------
# --------------------------------------DRIVER----------------------------------
# UVM_INFO ApbScoreboard.sv(46) @ 215: uvm_test_top.env_h.scb_h [SB] ACTUAL TRANSACTION: size = 1 | TRANSFER = 1 | RW = 1 | WPADDR = 0 | WDATA = 0 | RDATA = 0 | RPADDR = 102
# ----------------------------------------------OUTPUT MONITOR-------------------------------------------------------
# UVM_INFO ApbOpMonitor.sv(43) @ 215: uvm_test_top.env_h.pass_h.op_mon_h [OUTPUT MONITOR] [215] transfer =1 , READ_WRITE =1, apb_write_paddr =xxxxxxxxx , apb_write_data =xx , apb_read_paddr =100000010, apb_read_data=x
# ----------------------------------------------OUTPUT MONITOR-------------------------------------------------------
# UVM_INFO ApbScoreboard.sv(39) @ 215: uvm_test_top.env_h.scb_h [SB] EXPECTED TRANSACTION: size = 1 | TRANSFER = 1 | RW = 1 | WDATA = 0 | WPADDR = 0 | RPADDR = 102
# ----------------------------------------------INPUT MONITOR-------------------------------------------------------
# --------------------------------------------
# Name                 Type        Size  Value
# --------------------------------------------
# ip_mon_h             ApbSeqItem  -     @685 
#   apb_write_paddr    integral    9     'h0  
#   apb_read_paddr     integral    9     'h102
#   apb_write_data     integral    8     'h0  
#   transfer           integral    1     'h1  
#   READ_WRITE         integral    1     'h1  
#   apb_read_data_out  integral    8     'h0  
# --------------------------------------------
# WRITE ADDRESS = 000000000  READ ADDRESS =100000010 
# THE RESET IS 1
# ----------------------------------------------INPUT MONITOR-------------------------------------------------------
# FOR COMPARING : WRITE DATA =00 READ DATA OUT =xx
# UVM_INFO ApbScoreboard.sv(100) @ 215: uvm_test_top.env_h.scb_h [COMPARE] READ PASS | EXPECTED RDATA = 0  ACTUAL RDATA =0 |EXPECTED  READ ADDR = 102 ACTUAL READ ADDR =102
# UVM_INFO verilog_src/uvm-1.1d/src/base/uvm_objection.svh(1268) @ 215: reporter [TEST_DONE] 'run' phase is ready to proceed to the 'extract' phase
# UVM_INFO ApbCoverage.sv(90) @ 215: uvm_test_top.env_h.cov_h [COVERAGE] 
#  Input coverage is 92.857143 
#  output coverage is 100.000000
# UVM_INFO ApbScoreboard.sv(114) @ 215: uvm_test_top.env_h.scb_h [SCOREBOARD] -----------------------------
# UVM_INFO ApbScoreboard.sv(115) @ 215: uvm_test_top.env_h.scb_h [SCOREBOARD] PASSED: 19
# UVM_INFO ApbScoreboard.sv(116) @ 215: uvm_test_top.env_h.scb_h [SCOREBOARD] FAILED: 0
# UVM_INFO ApbScoreboard.sv(117) @ 215: uvm_test_top.env_h.scb_h [SCOREBOARD] -----------------------------
# 
# --- UVM Report Summary ---
# 
# ** Report counts by severity
# UVM_INFO :  115
# UVM_WARNING :    0
# UVM_ERROR :    0
# UVM_FATAL :    0
# ** Report counts by id
# [COMPARE]    19
# [COVERAGE]     1
# [DRIVER]    20
# [OUTPUT MONITOR]    22
# [Questa UVM]     2
# [RNTST]     1
# [SB]    44
# [SCOREBOARD]     4
# [TEST_DONE]     1
# [UVMTOP]     1
# ** Note: $finish    : /tools/mentor/questasim_10.6c/questasim/linux/../verilog_src/uvm-1.1d/src/base/uvm_root.svh(430)
#    Time: 215 ns  Iteration: 65  Instance: /top
# 1
# Break in Task uvm_pkg/uvm_root::run_test at /tools/mentor/questasim_10.6c/questasim/linux/../verilog_src/uvm-1.1d/src/base/uvm_root.svh line 430
quit
# End time: 13:32:16 on May 21,2025, Elapsed time: 0:00:33
# Errors: 0, Warnings: 3
