# //  Questa Sim
# //  Version 10.6c linux Jul 25 2017
# //
# //  Copyright 1991-2017 Mentor Graphics Corporation
# //  All Rights Reserved.
# //
# //  QuestaSim and its associated documentation contain trade
# //  secrets and commercial or financial information that are the property of
# //  Mentor Graphics Corporation and are privileged, confidential,
# //  and exempt from disclosure under the Freedom of Information Act,
# //  5 U.S.C. Section 552. Furthermore, this information
# //  is prohibited from disclosure under the Trade Secrets Act,
# //  18 U.S.C. Section 1905.
# //
# vsim $ 
# Start time: 09:57:56 on May 23,2025
# ** Note: (vsim-3812) Design is being optimized...
# ** Error: (vopt-13130) Failed to find design unit $.
#         Searched libraries:
#             work
# Optimization failed
# Error loading design
# End time: 09:57:56 on May 23,2025, Elapsed time: 0:00:00
# Errors: 1, Warnings: 0
vlog ApbTop.sv
# QuestaSim vlog 10.6c Compiler 2017.07 Jul 25 2017
# Start time: 09:58:06 on May 23,2025
# vlog -reportprogress 300 ApbTop.sv 
# ** Note: (vlog-2286) ApbPackage.sv(1): Using implicit +incdir+/tools/mentor/questasim_10.6c/questasim/uvm-1.1d/../verilog_src/uvm-1.1d/src from import uvm_pkg
# -- Compiling package ApbTop_sv_unit
# -- Importing package mtiUvm.uvm_pkg (uvm-1.1d Built-in)
# -- Compiling module master_bridge
# -- Compiling module slave1
# -- Compiling module slave2
# -- Compiling module APB_Protocol
# -- Compiling interface ApbInterface
# -- Compiling module top
# 
# Top level modules:
# 	top
# End time: 09:58:07 on May 23,2025, Elapsed time: 0:00:01
# Errors: 0, Warnings: 0
vsim -novopt -supress 12110 top
# ** Error: (vish-3296) Unknown option '-supress'.
# Use the -help option for complete vsim usage.
# Error loading design
vsim -novopt -suppress 12110 top
# vsim -novopt -suppress 12110 top 
# Start time: 09:58:29 on May 23,2025
# ** Warning: (vsim-8891) All optimizations are turned off because the -novopt switch is in effect. This will cause your simulation to run very slowly. If you are using this switch to preserve visibility for Debug or PLI features please see the User's Manual section on Preserving Object Visibility with vopt.
# Refreshing /home/shreyasb/APB_2slave_team05/APB_2Slave/src/work.top
# Refreshing /home/shreyasb/APB_2slave_team05/APB_2Slave/src/work.ApbTop_sv_unit
# Loading sv_std.std
# Loading mtiUvm.uvm_pkg
# Loading work.ApbTop_sv_unit
# Loading work.top
# Refreshing /home/shreyasb/APB_2slave_team05/APB_2Slave/src/work.APB_Protocol
# Loading work.APB_Protocol
# Refreshing /home/shreyasb/APB_2slave_team05/APB_2Slave/src/work.master_bridge
# Loading work.master_bridge
# Refreshing /home/shreyasb/APB_2slave_team05/APB_2Slave/src/work.slave1
# Loading work.slave1
# Refreshing /home/shreyasb/APB_2slave_team05/APB_2Slave/src/work.slave2
# Loading work.slave2
# Refreshing /home/shreyasb/APB_2slave_team05/APB_2Slave/src/work.ApbInterface
# Loading work.ApbInterface
# Loading mtiUvm.questa_uvm_pkg
# ** Warning: (vsim-3017) ApbTop.sv(12): [TFMPC] - Too few port connections. Expected 9, found 8.
#    Time: 0 ns  Iteration: 0  Instance: /top/dut File: apbtop.v
# ** Warning: (vsim-3722) ApbTop.sv(12): [TFMPC] - Missing connection for port 'PSLVERR'.
# Loading /tools/mentor/questasim_10.6c/questasim/uvm-1.1d/linux/uvm_dpi.so
add wave -position insertpoint sim:/top/dut/*
run -all
# ----------------------------------------------------------------
# UVM-1.1d
# (C) 2007-2013 Mentor Graphics Corporation
# (C) 2007-2013 Cadence Design Systems, Inc.
# (C) 2006-2013 Synopsys, Inc.
# (C) 2011-2013 Cypress Semiconductor Corp.
# ----------------------------------------------------------------
# 
#   ***********       IMPORTANT RELEASE NOTES         ************
# 
#   You are using a version of the UVM library that has been compiled
#   with `UVM_NO_DEPRECATED undefined.
#   See http://www.eda.org/svdb/view.php?id=3313 for more details.
# 
#   You are using a version of the UVM library that has been compiled
#   with `UVM_OBJECT_MUST_HAVE_CONSTRUCTOR undefined.
#   See http://www.eda.org/svdb/view.php?id=3770 for more details.
# 
#       (Specify +UVM_NO_RELNOTES to turn off this notice)
# 
# UVM_INFO verilog_src/questa_uvm_pkg-1.2/src/questa_uvm_pkg.sv(215) @ 0: reporter [Questa UVM] QUESTA_UVM-1.2.3
# UVM_INFO verilog_src/questa_uvm_pkg-1.2/src/questa_uvm_pkg.sv(217) @ 0: reporter [Questa UVM]  questa_uvm::init(+struct)
# UVM_INFO @ 0: reporter [RNTST] Running test ApbWriteReadSlave1Test...
# UVM_INFO @ 0: reporter [UVMTOP] UVM testbench topology:
# ------------------------------------------------------------------
# Name                         Type                      Size  Value
# ------------------------------------------------------------------
# uvm_test_top                 ApbWriteReadSlave1Test    -     @471 
#   env_h                      ApbEnvironment            -     @478 
#     act_h                    ApbActiveAgent            -     @485 
#       drv_h                  ApbDriver                 -     @537 
#         rsp_port             uvm_analysis_port         -     @552 
#         seq_item_port        uvm_seq_item_pull_port    -     @544 
#       ip_mon_h               ApbIpMonitor              -     @669 
#         item_collected_port  uvm_analysis_port         -     @676 
#       seqr_h                 ApbSequencer              -     @560 
#         rsp_export           uvm_analysis_export       -     @567 
#         seq_item_export      uvm_seq_item_pull_imp     -     @661 
#         arbitration_queue    array                     0     -    
#         lock_queue           array                     0     -    
#         num_last_reqs        integral                  32    'd1  
#         num_last_rsps        integral                  32    'd1  
#     cov_h                    ApbCoverage               -     @506 
#       analysis_imp           uvm_analysis_imp          -     @513 
#       ip_mon_imp             uvm_analysis_imp_ip_mon   -     @521 
#       op_mon_imp             uvm_analysis_imp_op_mon   -     @529 
#     pass_h                   ApbPassiveAgent           -     @492 
#       op_mon_h               ApbOpMonitor              -     @695 
#         item_collected_port  uvm_analysis_port         -     @702 
#     scb_h                    ApbScoreboard             -     @499 
#       in_mon_port            uvm_analysis_imp_in_mon   -     @715 
#       out_mon_port           uvm_analysis_imp_out_mon  -     @723 
# ------------------------------------------------------------------
# 
# UVM_INFO ApbScoreboard.sv(39) @ 5: uvm_test_top.env_h.scb_h [SB] EXPECTED TRANSACTION: size = 1 | TRANSFER = 0 | RW = 0 | WDATA = 0 | WPADDR = 0 | RPADDR = 0
# ----------------------------------------------INPUT MONITOR-------------------------------------------------------
# --------------------------------------------
# Name                 Type        Size  Value
# --------------------------------------------
# ip_mon_h             ApbSeqItem  -     @685 
#   apb_write_paddr    integral    9     'h0  
#   apb_read_paddr     integral    9     'h0  
#   apb_write_data     integral    8     'h0  
#   transfer           integral    1     'h0  
#   READ_WRITE         integral    1     'h0  
#   apb_read_data_out  integral    8     'h0  
# --------------------------------------------
# WRITE ADDRESS = 000000000  READ ADDRESS =000000000 
# THE RESET IS 0
# ----------------------------------------------INPUT MONITOR-------------------------------------------------------
# UVM_INFO ApbScoreboard.sv(46) @ 5: uvm_test_top.env_h.scb_h [SB] ACTUAL TRANSACTION: size = 1 | TRANSFER = 0 | RW = 0 | WPADDR = 0 | WDATA = 0 | RDATA = 0 | RPADDR = 0
# ----------------------------------------------OUTPUT MONITOR-------------------------------------------------------
# UVM_INFO ApbOpMonitor.sv(43) @ 5: uvm_test_top.env_h.pass_h.op_mon_h [OUTPUT MONITOR] [5] transfer =x , READ_WRITE =x, apb_write_paddr =xxxxxxxxx , apb_write_data =xx , apb_read_paddr =x, apb_read_data=x
# ----------------------------------------------OUTPUT MONITOR-------------------------------------------------------
# UVM_INFO ApbScoreboard.sv(46) @ 15: uvm_test_top.env_h.scb_h [SB] ACTUAL TRANSACTION: size = 1 | TRANSFER = 0 | RW = 0 | WPADDR = 0 | WDATA = 0 | RDATA = 0 | RPADDR = 0
# ----------------------------------------------OUTPUT MONITOR-------------------------------------------------------
# UVM_INFO ApbOpMonitor.sv(43) @ 15: uvm_test_top.env_h.pass_h.op_mon_h [OUTPUT MONITOR] [15] transfer =x , READ_WRITE =x, apb_write_paddr =xxxxxxxxx , apb_write_data =xx , apb_read_paddr =x, apb_read_data=x
# ----------------------------------------------OUTPUT MONITOR-------------------------------------------------------
# UVM_INFO ApbScoreboard.sv(39) @ 15: uvm_test_top.env_h.scb_h [SB] EXPECTED TRANSACTION: size = 1 | TRANSFER = 0 | RW = 0 | WDATA = 0 | WPADDR = 0 | RPADDR = 0
# ----------------------------------------------INPUT MONITOR-------------------------------------------------------
# --------------------------------------------
# Name                 Type        Size  Value
# --------------------------------------------
# ip_mon_h             ApbSeqItem  -     @685 
#   apb_write_paddr    integral    9     'h0  
#   apb_read_paddr     integral    9     'h0  
#   apb_write_data     integral    8     'h0  
#   transfer           integral    1     'h0  
#   READ_WRITE         integral    1     'h0  
#   apb_read_data_out  integral    8     'h0  
# --------------------------------------------
# WRITE ADDRESS = 000000000  READ ADDRESS =000000000 
# THE RESET IS 0
# ----------------------------------------------INPUT MONITOR-------------------------------------------------------
# UVM_INFO ApbDriver.sv(63) @ 25: uvm_test_top.env_h.act_h.drv_h [DRIVER] [25] presetn = 1, transfer = 1, READ_WRITE = 0, apb_write_paddr = 003, apb_write_data = d1, apb_read_paddr = 1fe
# ---------------------------------DRIVER-------------------
# --------------------------------------------------------------------------------------
# Name                           Type        Size  Value                                
# --------------------------------------------------------------------------------------
# txn                            ApbSeqItem  -     @739                                 
#   apb_write_paddr              integral    9     'h3                                  
#   apb_read_paddr               integral    9     'h1fe                                
#   apb_write_data               integral    8     'hd1                                 
#   transfer                     integral    1     'h1                                  
#   READ_WRITE                   integral    1     'h0                                  
#   apb_read_data_out            integral    8     'h0                                  
#   begin_time                   time        64    15                                   
#   depth                        int         32    'd2                                  
#   parent sequence (name)       string      5     seq_h                                
#   parent sequence (full name)  string      37    uvm_test_top.env_h.act_h.seqr_h.seq_h
#   sequencer                    string      31    uvm_test_top.env_h.act_h.seqr_h      
# --------------------------------------------------------------------------------------
# --------------------------------------DRIVER----------------------------------
# UVM_INFO ApbScoreboard.sv(39) @ 25: uvm_test_top.env_h.scb_h [SB] EXPECTED TRANSACTION: size = 1 | TRANSFER = 0 | RW = 0 | WDATA = 0 | WPADDR = 0 | RPADDR = 0
# ----------------------------------------------INPUT MONITOR-------------------------------------------------------
# --------------------------------------------
# Name                 Type        Size  Value
# --------------------------------------------
# ip_mon_h             ApbSeqItem  -     @685 
#   apb_write_paddr    integral    9     'h0  
#   apb_read_paddr     integral    9     'h0  
#   apb_write_data     integral    8     'h0  
#   transfer           integral    1     'h0  
#   READ_WRITE         integral    1     'h0  
#   apb_read_data_out  integral    8     'h0  
# --------------------------------------------
# WRITE ADDRESS = 000000000  READ ADDRESS =000000000 
# THE RESET IS 1
# ----------------------------------------------INPUT MONITOR-------------------------------------------------------
# UVM_INFO ApbScoreboard.sv(46) @ 25: uvm_test_top.env_h.scb_h [SB] ACTUAL TRANSACTION: size = 1 | TRANSFER = 0 | RW = 0 | WPADDR = 0 | WDATA = 0 | RDATA = 0 | RPADDR = 0
# ----------------------------------------------OUTPUT MONITOR-------------------------------------------------------
# UVM_INFO ApbOpMonitor.sv(43) @ 25: uvm_test_top.env_h.pass_h.op_mon_h [OUTPUT MONITOR] [25] transfer =x , READ_WRITE =x, apb_write_paddr =xxxxxxxxx , apb_write_data =xx , apb_read_paddr =x, apb_read_data=x
# ----------------------------------------------OUTPUT MONITOR-------------------------------------------------------
# UVM_INFO ApbDriver.sv(63) @ 35: uvm_test_top.env_h.act_h.drv_h [DRIVER] [35] presetn = 1, transfer = 1, READ_WRITE = 0, apb_write_paddr = 003, apb_write_data = d1, apb_read_paddr = 1fe
# ---------------------------------DRIVER-------------------
# --------------------------------------------------------------------------------------
# Name                           Type        Size  Value                                
# --------------------------------------------------------------------------------------
# txn                            ApbSeqItem  -     @739                                 
#   apb_write_paddr              integral    9     'h3                                  
#   apb_read_paddr               integral    9     'h1fe                                
#   apb_write_data               integral    8     'hd1                                 
#   transfer                     integral    1     'h1                                  
#   READ_WRITE                   integral    1     'h0                                  
#   apb_read_data_out            integral    8     'h0                                  
#   begin_time                   time        64    25                                   
#   end_time                     time        64    25                                   
#   depth                        int         32    'd2                                  
#   parent sequence (name)       string      5     seq_h                                
#   parent sequence (full name)  string      37    uvm_test_top.env_h.act_h.seqr_h.seq_h
#   sequencer                    string      31    uvm_test_top.env_h.act_h.seqr_h      
# --------------------------------------------------------------------------------------
# --------------------------------------DRIVER----------------------------------
# UVM_INFO ApbScoreboard.sv(46) @ 35: uvm_test_top.env_h.scb_h [SB] ACTUAL TRANSACTION: size = 1 | TRANSFER = 1 | RW = 0 | WPADDR = 3 | WDATA = d1 | RDATA = 0 | RPADDR = 0
# ----------------------------------------------OUTPUT MONITOR-------------------------------------------------------
# UVM_INFO ApbOpMonitor.sv(43) @ 35: uvm_test_top.env_h.pass_h.op_mon_h [OUTPUT MONITOR] [35] transfer =1 , READ_WRITE =0, apb_write_paddr =000000011 , apb_write_data =d1 , apb_read_paddr =x, apb_read_data=x
# ----------------------------------------------OUTPUT MONITOR-------------------------------------------------------
# UVM_INFO ApbScoreboard.sv(39) @ 35: uvm_test_top.env_h.scb_h [SB] EXPECTED TRANSACTION: size = 1 | TRANSFER = 1 | RW = 0 | WDATA = d1 | WPADDR = 3 | RPADDR = 0
# ----------------------------------------------INPUT MONITOR-------------------------------------------------------
# --------------------------------------------
# Name                 Type        Size  Value
# --------------------------------------------
# ip_mon_h             ApbSeqItem  -     @685 
#   apb_write_paddr    integral    9     'h3  
#   apb_read_paddr     integral    9     'h0  
#   apb_write_data     integral    8     'hd1 
#   transfer           integral    1     'h1  
#   READ_WRITE         integral    1     'h0  
#   apb_read_data_out  integral    8     'h0  
# --------------------------------------------
# WRITE ADDRESS = 000000011  READ ADDRESS =000000000 
# THE RESET IS 1
# ----------------------------------------------INPUT MONITOR-------------------------------------------------------
# FOR COMPARING : WRITE DATA =d1 READ DATA OUT =xx
# -------------------------------------------------------------------WRITE--PASS---------------------------------------------------------------------
# UVM_INFO ApbScoreboard.sv(84) @ 35: uvm_test_top.env_h.scb_h [COMPARE] WRITE PASS | EXPECTED WDATA = d1  ACTUAL WDATA =d1 |EXPECTED  WRITE ADDR = 3 ACTUAL WRITE ADDR =3
# WRITE_ADDRESS_VALIDITY: ASSERTION PASS
# TRANSFER_VALIDITY: ASSERTION PASS
# UVM_INFO ApbDriver.sv(63) @ 45: uvm_test_top.env_h.act_h.drv_h [DRIVER] [45] presetn = 1, transfer = 1, READ_WRITE = 1, apb_write_paddr = 1c5, apb_write_data = 95, apb_read_paddr = 003
# ---------------------------------DRIVER-------------------
# --------------------------------------------------------------------------------------
# Name                           Type        Size  Value                                
# --------------------------------------------------------------------------------------
# txn                            ApbSeqItem  -     @768                                 
#   apb_write_paddr              integral    9     'h1c5                                
#   apb_read_paddr               integral    9     'h3                                  
#   apb_write_data               integral    8     'h95                                 
#   transfer                     integral    1     'h1                                  
#   READ_WRITE                   integral    1     'h1                                  
#   apb_read_data_out            integral    8     'h0                                  
#   begin_time                   time        64    35                                   
#   depth                        int         32    'd2                                  
#   parent sequence (name)       string      5     seq_h                                
#   parent sequence (full name)  string      37    uvm_test_top.env_h.act_h.seqr_h.seq_h
#   sequencer                    string      31    uvm_test_top.env_h.act_h.seqr_h      
# --------------------------------------------------------------------------------------
# --------------------------------------DRIVER----------------------------------
# UVM_INFO ApbScoreboard.sv(39) @ 45: uvm_test_top.env_h.scb_h [SB] EXPECTED TRANSACTION: size = 1 | TRANSFER = 1 | RW = 0 | WDATA = d1 | WPADDR = 3 | RPADDR = 0
# ----------------------------------------------INPUT MONITOR-------------------------------------------------------
# --------------------------------------------
# Name                 Type        Size  Value
# --------------------------------------------
# ip_mon_h             ApbSeqItem  -     @685 
#   apb_write_paddr    integral    9     'h3  
#   apb_read_paddr     integral    9     'h0  
#   apb_write_data     integral    8     'hd1 
#   transfer           integral    1     'h1  
#   READ_WRITE         integral    1     'h0  
#   apb_read_data_out  integral    8     'h0  
# --------------------------------------------
# WRITE ADDRESS = 000000011  READ ADDRESS =000000000 
# THE RESET IS 1
# ----------------------------------------------INPUT MONITOR-------------------------------------------------------
# UVM_INFO ApbScoreboard.sv(46) @ 45: uvm_test_top.env_h.scb_h [SB] ACTUAL TRANSACTION: size = 1 | TRANSFER = 1 | RW = 0 | WPADDR = 3 | WDATA = d1 | RDATA = 0 | RPADDR = 0
# ----------------------------------------------OUTPUT MONITOR-------------------------------------------------------
# UVM_INFO ApbOpMonitor.sv(43) @ 45: uvm_test_top.env_h.pass_h.op_mon_h [OUTPUT MONITOR] [45] transfer =1 , READ_WRITE =0, apb_write_paddr =000000011 , apb_write_data =d1 , apb_read_paddr =x, apb_read_data=x
# ----------------------------------------------OUTPUT MONITOR-------------------------------------------------------
# FOR COMPARING : WRITE DATA =d1 READ DATA OUT =xx
# -------------------------------------------------------------------WRITE--PASS---------------------------------------------------------------------
# UVM_INFO ApbScoreboard.sv(84) @ 45: uvm_test_top.env_h.scb_h [COMPARE] WRITE PASS | EXPECTED WDATA = d1  ACTUAL WDATA =d1 |EXPECTED  WRITE ADDR = 3 ACTUAL WRITE ADDR =3
# WRITE_ADDRESS_VALIDITY: ASSERTION PASS
# TRANSFER_VALIDITY: ASSERTION PASS
# UVM_INFO ApbDriver.sv(63) @ 55: uvm_test_top.env_h.act_h.drv_h [DRIVER] [55] presetn = 1, transfer = 1, READ_WRITE = 1, apb_write_paddr = 1c5, apb_write_data = 95, apb_read_paddr = 003
# ---------------------------------DRIVER-------------------
# --------------------------------------------------------------------------------------
# Name                           Type        Size  Value                                
# --------------------------------------------------------------------------------------
# txn                            ApbSeqItem  -     @768                                 
#   apb_write_paddr              integral    9     'h1c5                                
#   apb_read_paddr               integral    9     'h3                                  
#   apb_write_data               integral    8     'h95                                 
#   transfer                     integral    1     'h1                                  
#   READ_WRITE                   integral    1     'h1                                  
#   apb_read_data_out            integral    8     'h0                                  
#   begin_time                   time        64    45                                   
#   end_time                     time        64    45                                   
#   depth                        int         32    'd2                                  
#   parent sequence (name)       string      5     seq_h                                
#   parent sequence (full name)  string      37    uvm_test_top.env_h.act_h.seqr_h.seq_h
#   sequencer                    string      31    uvm_test_top.env_h.act_h.seqr_h      
# --------------------------------------------------------------------------------------
# --------------------------------------DRIVER----------------------------------
# UVM_INFO ApbScoreboard.sv(46) @ 55: uvm_test_top.env_h.scb_h [SB] ACTUAL TRANSACTION: size = 1 | TRANSFER = 1 | RW = 1 | WPADDR = 3 | WDATA = d1 | RDATA = 0 | RPADDR = 3
# ----------------------------------------------OUTPUT MONITOR-------------------------------------------------------
# UVM_INFO ApbOpMonitor.sv(43) @ 55: uvm_test_top.env_h.pass_h.op_mon_h [OUTPUT MONITOR] [55] transfer =1 , READ_WRITE =1, apb_write_paddr =000000011 , apb_write_data =d1 , apb_read_paddr =11, apb_read_data=x
# ----------------------------------------------OUTPUT MONITOR-------------------------------------------------------
# UVM_INFO ApbScoreboard.sv(39) @ 55: uvm_test_top.env_h.scb_h [SB] EXPECTED TRANSACTION: size = 1 | TRANSFER = 1 | RW = 1 | WDATA = d1 | WPADDR = 3 | RPADDR = 3
# ----------------------------------------------INPUT MONITOR-------------------------------------------------------
# --------------------------------------------
# Name                 Type        Size  Value
# --------------------------------------------
# ip_mon_h             ApbSeqItem  -     @685 
#   apb_write_paddr    integral    9     'h3  
#   apb_read_paddr     integral    9     'h3  
#   apb_write_data     integral    8     'hd1 
#   transfer           integral    1     'h1  
#   READ_WRITE         integral    1     'h1  
#   apb_read_data_out  integral    8     'h0  
# --------------------------------------------
# WRITE ADDRESS = 000000011  READ ADDRESS =000000011 
# THE RESET IS 1
# ----------------------------------------------INPUT MONITOR-------------------------------------------------------
# FOR COMPARING : WRITE DATA =d1 READ DATA OUT =d1
# -------------------------------------------------------------------------READ FAIL---------------------------------------------------------------------
# UVM_ERROR ApbScoreboard.sv(110) @ 55: uvm_test_top.env_h.scb_h [COMPARE] READ FAIL | EXPECTED  RDATA = d1,EXPECTED  ADDR = 3 | ACTUAL RDATA = 0,ACTUAL ADDR = 3
# READ_ADDRESS_VALIDITY: ASSERTION PASS
# TRANSFER_VALIDITY: ASSERTION PASS
# UVM_INFO ApbDriver.sv(63) @ 65: uvm_test_top.env_h.act_h.drv_h [DRIVER] [65] presetn = 1, transfer = 1, READ_WRITE = 0, apb_write_paddr = 001, apb_write_data = 41, apb_read_paddr = 05f
# ---------------------------------DRIVER-------------------
# --------------------------------------------------------------------------------------
# Name                           Type        Size  Value                                
# --------------------------------------------------------------------------------------
# txn                            ApbSeqItem  -     @772                                 
#   apb_write_paddr              integral    9     'h1                                  
#   apb_read_paddr               integral    9     'h5f                                 
#   apb_write_data               integral    8     'h41                                 
#   transfer                     integral    1     'h1                                  
#   READ_WRITE                   integral    1     'h0                                  
#   apb_read_data_out            integral    8     'h0                                  
#   begin_time                   time        64    55                                   
#   depth                        int         32    'd2                                  
#   parent sequence (name)       string      5     seq_h                                
#   parent sequence (full name)  string      37    uvm_test_top.env_h.act_h.seqr_h.seq_h
#   sequencer                    string      31    uvm_test_top.env_h.act_h.seqr_h      
# --------------------------------------------------------------------------------------
# --------------------------------------DRIVER----------------------------------
# UVM_INFO ApbScoreboard.sv(39) @ 65: uvm_test_top.env_h.scb_h [SB] EXPECTED TRANSACTION: size = 1 | TRANSFER = 1 | RW = 1 | WDATA = d1 | WPADDR = 3 | RPADDR = 3
# ----------------------------------------------INPUT MONITOR-------------------------------------------------------
# --------------------------------------------
# Name                 Type        Size  Value
# --------------------------------------------
# ip_mon_h             ApbSeqItem  -     @685 
#   apb_write_paddr    integral    9     'h3  
#   apb_read_paddr     integral    9     'h3  
#   apb_write_data     integral    8     'hd1 
#   transfer           integral    1     'h1  
#   READ_WRITE         integral    1     'h1  
#   apb_read_data_out  integral    8     'hd1 
# --------------------------------------------
# WRITE ADDRESS = 000000011  READ ADDRESS =000000011 
# THE RESET IS 1
# ----------------------------------------------INPUT MONITOR-------------------------------------------------------
# UVM_INFO ApbScoreboard.sv(46) @ 65: uvm_test_top.env_h.scb_h [SB] ACTUAL TRANSACTION: size = 1 | TRANSFER = 1 | RW = 1 | WPADDR = 3 | WDATA = d1 | RDATA = d1 | RPADDR = 3
# ----------------------------------------------OUTPUT MONITOR-------------------------------------------------------
# UVM_INFO ApbOpMonitor.sv(43) @ 65: uvm_test_top.env_h.pass_h.op_mon_h [OUTPUT MONITOR] [65] transfer =1 , READ_WRITE =1, apb_write_paddr =000000011 , apb_write_data =d1 , apb_read_paddr =11, apb_read_data=d1
# ----------------------------------------------OUTPUT MONITOR-------------------------------------------------------
# FOR COMPARING : WRITE DATA =d1 READ DATA OUT =d1
# -------------------------------------------------------------------------READ PASS---------------------------------------------------------------------
# UVM_INFO ApbScoreboard.sv(103) @ 65: uvm_test_top.env_h.scb_h [COMPARE] READ PASS | EXPECTED RDATA = d1  ACTUAL RDATA =d1 |EXPECTED  READ ADDR = 3 ACTUAL READ ADDR =3
# READ_ADDRESS_VALIDITY: ASSERTION PASS
# TRANSFER_VALIDITY: ASSERTION PASS
# UVM_INFO ApbDriver.sv(63) @ 75: uvm_test_top.env_h.act_h.drv_h [DRIVER] [75] presetn = 1, transfer = 1, READ_WRITE = 0, apb_write_paddr = 001, apb_write_data = 41, apb_read_paddr = 05f
# ---------------------------------DRIVER-------------------
# --------------------------------------------------------------------------------------
# Name                           Type        Size  Value                                
# --------------------------------------------------------------------------------------
# txn                            ApbSeqItem  -     @772                                 
#   apb_write_paddr              integral    9     'h1                                  
#   apb_read_paddr               integral    9     'h5f                                 
#   apb_write_data               integral    8     'h41                                 
#   transfer                     integral    1     'h1                                  
#   READ_WRITE                   integral    1     'h0                                  
#   apb_read_data_out            integral    8     'h0                                  
#   begin_time                   time        64    65                                   
#   end_time                     time        64    65                                   
#   depth                        int         32    'd2                                  
#   parent sequence (name)       string      5     seq_h                                
#   parent sequence (full name)  string      37    uvm_test_top.env_h.act_h.seqr_h.seq_h
#   sequencer                    string      31    uvm_test_top.env_h.act_h.seqr_h      
# --------------------------------------------------------------------------------------
# --------------------------------------DRIVER----------------------------------
# UVM_INFO ApbScoreboard.sv(46) @ 75: uvm_test_top.env_h.scb_h [SB] ACTUAL TRANSACTION: size = 1 | TRANSFER = 1 | RW = 0 | WPADDR = 1 | WDATA = 41 | RDATA = d1 | RPADDR = 3
# ----------------------------------------------OUTPUT MONITOR-------------------------------------------------------
# UVM_INFO ApbOpMonitor.sv(43) @ 75: uvm_test_top.env_h.pass_h.op_mon_h [OUTPUT MONITOR] [75] transfer =1 , READ_WRITE =0, apb_write_paddr =000000001 , apb_write_data =41 , apb_read_paddr =11, apb_read_data=d1
# ----------------------------------------------OUTPUT MONITOR-------------------------------------------------------
# UVM_INFO ApbScoreboard.sv(39) @ 75: uvm_test_top.env_h.scb_h [SB] EXPECTED TRANSACTION: size = 1 | TRANSFER = 1 | RW = 0 | WDATA = 41 | WPADDR = 1 | RPADDR = 3
# ----------------------------------------------INPUT MONITOR-------------------------------------------------------
# --------------------------------------------
# Name                 Type        Size  Value
# --------------------------------------------
# ip_mon_h             ApbSeqItem  -     @685 
#   apb_write_paddr    integral    9     'h1  
#   apb_read_paddr     integral    9     'h3  
#   apb_write_data     integral    8     'h41 
#   transfer           integral    1     'h1  
#   READ_WRITE         integral    1     'h0  
#   apb_read_data_out  integral    8     'hd1 
# --------------------------------------------
# WRITE ADDRESS = 000000001  READ ADDRESS =000000011 
# THE RESET IS 1
# ----------------------------------------------INPUT MONITOR-------------------------------------------------------
# FOR COMPARING : WRITE DATA =41 READ DATA OUT =d1
# -------------------------------------------------------------------WRITE--PASS---------------------------------------------------------------------
# UVM_INFO ApbScoreboard.sv(84) @ 75: uvm_test_top.env_h.scb_h [COMPARE] WRITE PASS | EXPECTED WDATA = 41  ACTUAL WDATA =41 |EXPECTED  WRITE ADDR = 1 ACTUAL WRITE ADDR =1
# WRITE_ADDRESS_VALIDITY: ASSERTION PASS
# TRANSFER_VALIDITY: ASSERTION PASS
# UVM_INFO ApbDriver.sv(63) @ 85: uvm_test_top.env_h.act_h.drv_h [DRIVER] [85] presetn = 1, transfer = 1, READ_WRITE = 1, apb_write_paddr = 1c3, apb_write_data = 8e, apb_read_paddr = 001
# ---------------------------------DRIVER-------------------
# --------------------------------------------------------------------------------------
# Name                           Type        Size  Value                                
# --------------------------------------------------------------------------------------
# txn                            ApbSeqItem  -     @776                                 
#   apb_write_paddr              integral    9     'h1c3                                
#   apb_read_paddr               integral    9     'h1                                  
#   apb_write_data               integral    8     'h8e                                 
#   transfer                     integral    1     'h1                                  
#   READ_WRITE                   integral    1     'h1                                  
#   apb_read_data_out            integral    8     'h0                                  
#   begin_time                   time        64    75                                   
#   depth                        int         32    'd2                                  
#   parent sequence (name)       string      5     seq_h                                
#   parent sequence (full name)  string      37    uvm_test_top.env_h.act_h.seqr_h.seq_h
#   sequencer                    string      31    uvm_test_top.env_h.act_h.seqr_h      
# --------------------------------------------------------------------------------------
# --------------------------------------DRIVER----------------------------------
# UVM_INFO ApbScoreboard.sv(39) @ 85: uvm_test_top.env_h.scb_h [SB] EXPECTED TRANSACTION: size = 1 | TRANSFER = 1 | RW = 0 | WDATA = 41 | WPADDR = 1 | RPADDR = 3
# ----------------------------------------------INPUT MONITOR-------------------------------------------------------
# --------------------------------------------
# Name                 Type        Size  Value
# --------------------------------------------
# ip_mon_h             ApbSeqItem  -     @685 
#   apb_write_paddr    integral    9     'h1  
#   apb_read_paddr     integral    9     'h3  
#   apb_write_data     integral    8     'h41 
#   transfer           integral    1     'h1  
#   READ_WRITE         integral    1     'h0  
#   apb_read_data_out  integral    8     'hd1 
# --------------------------------------------
# WRITE ADDRESS = 000000001  READ ADDRESS =000000011 
# THE RESET IS 1
# ----------------------------------------------INPUT MONITOR-------------------------------------------------------
# UVM_INFO ApbScoreboard.sv(46) @ 85: uvm_test_top.env_h.scb_h [SB] ACTUAL TRANSACTION: size = 1 | TRANSFER = 1 | RW = 0 | WPADDR = 1 | WDATA = 41 | RDATA = d1 | RPADDR = 3
# ----------------------------------------------OUTPUT MONITOR-------------------------------------------------------
# UVM_INFO ApbOpMonitor.sv(43) @ 85: uvm_test_top.env_h.pass_h.op_mon_h [OUTPUT MONITOR] [85] transfer =1 , READ_WRITE =0, apb_write_paddr =000000001 , apb_write_data =41 , apb_read_paddr =11, apb_read_data=d1
# ----------------------------------------------OUTPUT MONITOR-------------------------------------------------------
# FOR COMPARING : WRITE DATA =41 READ DATA OUT =d1
# -------------------------------------------------------------------WRITE--PASS---------------------------------------------------------------------
# UVM_INFO ApbScoreboard.sv(84) @ 85: uvm_test_top.env_h.scb_h [COMPARE] WRITE PASS | EXPECTED WDATA = 41  ACTUAL WDATA =41 |EXPECTED  WRITE ADDR = 1 ACTUAL WRITE ADDR =1
# WRITE_ADDRESS_VALIDITY: ASSERTION PASS
# TRANSFER_VALIDITY: ASSERTION PASS
# UVM_INFO ApbDriver.sv(63) @ 95: uvm_test_top.env_h.act_h.drv_h [DRIVER] [95] presetn = 1, transfer = 1, READ_WRITE = 1, apb_write_paddr = 1c3, apb_write_data = 8e, apb_read_paddr = 001
# ---------------------------------DRIVER-------------------
# --------------------------------------------------------------------------------------
# Name                           Type        Size  Value                                
# --------------------------------------------------------------------------------------
# txn                            ApbSeqItem  -     @776                                 
#   apb_write_paddr              integral    9     'h1c3                                
#   apb_read_paddr               integral    9     'h1                                  
#   apb_write_data               integral    8     'h8e                                 
#   transfer                     integral    1     'h1                                  
#   READ_WRITE                   integral    1     'h1                                  
#   apb_read_data_out            integral    8     'h0                                  
#   begin_time                   time        64    85                                   
#   end_time                     time        64    85                                   
#   depth                        int         32    'd2                                  
#   parent sequence (name)       string      5     seq_h                                
#   parent sequence (full name)  string      37    uvm_test_top.env_h.act_h.seqr_h.seq_h
#   sequencer                    string      31    uvm_test_top.env_h.act_h.seqr_h      
# --------------------------------------------------------------------------------------
# --------------------------------------DRIVER----------------------------------
# UVM_INFO ApbScoreboard.sv(46) @ 95: uvm_test_top.env_h.scb_h [SB] ACTUAL TRANSACTION: size = 1 | TRANSFER = 1 | RW = 1 | WPADDR = 1 | WDATA = 41 | RDATA = d1 | RPADDR = 1
# ----------------------------------------------OUTPUT MONITOR-------------------------------------------------------
# UVM_INFO ApbOpMonitor.sv(43) @ 95: uvm_test_top.env_h.pass_h.op_mon_h [OUTPUT MONITOR] [95] transfer =1 , READ_WRITE =1, apb_write_paddr =000000001 , apb_write_data =41 , apb_read_paddr =1, apb_read_data=d1
# ----------------------------------------------OUTPUT MONITOR-------------------------------------------------------
# UVM_INFO ApbScoreboard.sv(39) @ 95: uvm_test_top.env_h.scb_h [SB] EXPECTED TRANSACTION: size = 1 | TRANSFER = 1 | RW = 1 | WDATA = 41 | WPADDR = 1 | RPADDR = 1
# ----------------------------------------------INPUT MONITOR-------------------------------------------------------
# --------------------------------------------
# Name                 Type        Size  Value
# --------------------------------------------
# ip_mon_h             ApbSeqItem  -     @685 
#   apb_write_paddr    integral    9     'h1  
#   apb_read_paddr     integral    9     'h1  
#   apb_write_data     integral    8     'h41 
#   transfer           integral    1     'h1  
#   READ_WRITE         integral    1     'h1  
#   apb_read_data_out  integral    8     'hd1 
# --------------------------------------------
# WRITE ADDRESS = 000000001  READ ADDRESS =000000001 
# THE RESET IS 1
# ----------------------------------------------INPUT MONITOR-------------------------------------------------------
# FOR COMPARING : WRITE DATA =41 READ DATA OUT =41
# -------------------------------------------------------------------------READ FAIL---------------------------------------------------------------------
# UVM_ERROR ApbScoreboard.sv(110) @ 95: uvm_test_top.env_h.scb_h [COMPARE] READ FAIL | EXPECTED  RDATA = 41,EXPECTED  ADDR = 1 | ACTUAL RDATA = d1,ACTUAL ADDR = 1
# READ_ADDRESS_VALIDITY: ASSERTION PASS
# TRANSFER_VALIDITY: ASSERTION PASS
# UVM_INFO ApbDriver.sv(63) @ 105: uvm_test_top.env_h.act_h.drv_h [DRIVER] [105] presetn = 1, transfer = 1, READ_WRITE = 0, apb_write_paddr = 008, apb_write_data = f1, apb_read_paddr = 02f
# ---------------------------------DRIVER-------------------
# --------------------------------------------------------------------------------------
# Name                           Type        Size  Value                                
# --------------------------------------------------------------------------------------
# txn                            ApbSeqItem  -     @780                                 
#   apb_write_paddr              integral    9     'h8                                  
#   apb_read_paddr               integral    9     'h2f                                 
#   apb_write_data               integral    8     'hf1                                 
#   transfer                     integral    1     'h1                                  
#   READ_WRITE                   integral    1     'h0                                  
#   apb_read_data_out            integral    8     'h0                                  
#   begin_time                   time        64    95                                   
#   depth                        int         32    'd2                                  
#   parent sequence (name)       string      5     seq_h                                
#   parent sequence (full name)  string      37    uvm_test_top.env_h.act_h.seqr_h.seq_h
#   sequencer                    string      31    uvm_test_top.env_h.act_h.seqr_h      
# --------------------------------------------------------------------------------------
# --------------------------------------DRIVER----------------------------------
# UVM_INFO ApbScoreboard.sv(39) @ 105: uvm_test_top.env_h.scb_h [SB] EXPECTED TRANSACTION: size = 1 | TRANSFER = 1 | RW = 1 | WDATA = 41 | WPADDR = 1 | RPADDR = 1
# ----------------------------------------------INPUT MONITOR-------------------------------------------------------
# --------------------------------------------
# Name                 Type        Size  Value
# --------------------------------------------
# ip_mon_h             ApbSeqItem  -     @685 
#   apb_write_paddr    integral    9     'h1  
#   apb_read_paddr     integral    9     'h1  
#   apb_write_data     integral    8     'h41 
#   transfer           integral    1     'h1  
#   READ_WRITE         integral    1     'h1  
#   apb_read_data_out  integral    8     'h41 
# --------------------------------------------
# WRITE ADDRESS = 000000001  READ ADDRESS =000000001 
# THE RESET IS 1
# ----------------------------------------------INPUT MONITOR-------------------------------------------------------
# UVM_INFO ApbScoreboard.sv(46) @ 105: uvm_test_top.env_h.scb_h [SB] ACTUAL TRANSACTION: size = 1 | TRANSFER = 1 | RW = 1 | WPADDR = 1 | WDATA = 41 | RDATA = 41 | RPADDR = 1
# ----------------------------------------------OUTPUT MONITOR-------------------------------------------------------
# UVM_INFO ApbOpMonitor.sv(43) @ 105: uvm_test_top.env_h.pass_h.op_mon_h [OUTPUT MONITOR] [105] transfer =1 , READ_WRITE =1, apb_write_paddr =000000001 , apb_write_data =41 , apb_read_paddr =1, apb_read_data=41
# ----------------------------------------------OUTPUT MONITOR-------------------------------------------------------
# FOR COMPARING : WRITE DATA =41 READ DATA OUT =41
# -------------------------------------------------------------------------READ PASS---------------------------------------------------------------------
# UVM_INFO ApbScoreboard.sv(103) @ 105: uvm_test_top.env_h.scb_h [COMPARE] READ PASS | EXPECTED RDATA = 41  ACTUAL RDATA =41 |EXPECTED  READ ADDR = 1 ACTUAL READ ADDR =1
# READ_ADDRESS_VALIDITY: ASSERTION PASS
# TRANSFER_VALIDITY: ASSERTION PASS
# UVM_INFO ApbDriver.sv(63) @ 115: uvm_test_top.env_h.act_h.drv_h [DRIVER] [115] presetn = 1, transfer = 1, READ_WRITE = 0, apb_write_paddr = 008, apb_write_data = f1, apb_read_paddr = 02f
# ---------------------------------DRIVER-------------------
# --------------------------------------------------------------------------------------
# Name                           Type        Size  Value                                
# --------------------------------------------------------------------------------------
# txn                            ApbSeqItem  -     @780                                 
#   apb_write_paddr              integral    9     'h8                                  
#   apb_read_paddr               integral    9     'h2f                                 
#   apb_write_data               integral    8     'hf1                                 
#   transfer                     integral    1     'h1                                  
#   READ_WRITE                   integral    1     'h0                                  
#   apb_read_data_out            integral    8     'h0                                  
#   begin_time                   time        64    105                                  
#   end_time                     time        64    105                                  
#   depth                        int         32    'd2                                  
#   parent sequence (name)       string      5     seq_h                                
#   parent sequence (full name)  string      37    uvm_test_top.env_h.act_h.seqr_h.seq_h
#   sequencer                    string      31    uvm_test_top.env_h.act_h.seqr_h      
# --------------------------------------------------------------------------------------
# --------------------------------------DRIVER----------------------------------
# UVM_INFO ApbScoreboard.sv(46) @ 115: uvm_test_top.env_h.scb_h [SB] ACTUAL TRANSACTION: size = 1 | TRANSFER = 1 | RW = 0 | WPADDR = 8 | WDATA = f1 | RDATA = 41 | RPADDR = 1
# ----------------------------------------------OUTPUT MONITOR-------------------------------------------------------
# UVM_INFO ApbOpMonitor.sv(43) @ 115: uvm_test_top.env_h.pass_h.op_mon_h [OUTPUT MONITOR] [115] transfer =1 , READ_WRITE =0, apb_write_paddr =000001000 , apb_write_data =f1 , apb_read_paddr =1, apb_read_data=41
# ----------------------------------------------OUTPUT MONITOR-------------------------------------------------------
# UVM_INFO ApbScoreboard.sv(39) @ 115: uvm_test_top.env_h.scb_h [SB] EXPECTED TRANSACTION: size = 1 | TRANSFER = 1 | RW = 0 | WDATA = f1 | WPADDR = 8 | RPADDR = 1
# ----------------------------------------------INPUT MONITOR-------------------------------------------------------
# --------------------------------------------
# Name                 Type        Size  Value
# --------------------------------------------
# ip_mon_h             ApbSeqItem  -     @685 
#   apb_write_paddr    integral    9     'h8  
#   apb_read_paddr     integral    9     'h1  
#   apb_write_data     integral    8     'hf1 
#   transfer           integral    1     'h1  
#   READ_WRITE         integral    1     'h0  
#   apb_read_data_out  integral    8     'h41 
# --------------------------------------------
# WRITE ADDRESS = 000001000  READ ADDRESS =000000001 
# THE RESET IS 1
# ----------------------------------------------INPUT MONITOR-------------------------------------------------------
# FOR COMPARING : WRITE DATA =f1 READ DATA OUT =41
# -------------------------------------------------------------------WRITE--PASS---------------------------------------------------------------------
# UVM_INFO ApbScoreboard.sv(84) @ 115: uvm_test_top.env_h.scb_h [COMPARE] WRITE PASS | EXPECTED WDATA = f1  ACTUAL WDATA =f1 |EXPECTED  WRITE ADDR = 8 ACTUAL WRITE ADDR =8
# WRITE_ADDRESS_VALIDITY: ASSERTION PASS
# TRANSFER_VALIDITY: ASSERTION PASS
# UVM_INFO ApbDriver.sv(63) @ 125: uvm_test_top.env_h.act_h.drv_h [DRIVER] [125] presetn = 1, transfer = 1, READ_WRITE = 1, apb_write_paddr = 1ea, apb_write_data = f4, apb_read_paddr = 008
# ---------------------------------DRIVER-------------------
# --------------------------------------------------------------------------------------
# Name                           Type        Size  Value                                
# --------------------------------------------------------------------------------------
# txn                            ApbSeqItem  -     @784                                 
#   apb_write_paddr              integral    9     'h1ea                                
#   apb_read_paddr               integral    9     'h8                                  
#   apb_write_data               integral    8     'hf4                                 
#   transfer                     integral    1     'h1                                  
#   READ_WRITE                   integral    1     'h1                                  
#   apb_read_data_out            integral    8     'h0                                  
#   begin_time                   time        64    115                                  
#   depth                        int         32    'd2                                  
#   parent sequence (name)       string      5     seq_h                                
#   parent sequence (full name)  string      37    uvm_test_top.env_h.act_h.seqr_h.seq_h
#   sequencer                    string      31    uvm_test_top.env_h.act_h.seqr_h      
# --------------------------------------------------------------------------------------
# --------------------------------------DRIVER----------------------------------
# UVM_INFO ApbScoreboard.sv(39) @ 125: uvm_test_top.env_h.scb_h [SB] EXPECTED TRANSACTION: size = 1 | TRANSFER = 1 | RW = 0 | WDATA = f1 | WPADDR = 8 | RPADDR = 1
# ----------------------------------------------INPUT MONITOR-------------------------------------------------------
# --------------------------------------------
# Name                 Type        Size  Value
# --------------------------------------------
# ip_mon_h             ApbSeqItem  -     @685 
#   apb_write_paddr    integral    9     'h8  
#   apb_read_paddr     integral    9     'h1  
#   apb_write_data     integral    8     'hf1 
#   transfer           integral    1     'h1  
#   READ_WRITE         integral    1     'h0  
#   apb_read_data_out  integral    8     'h41 
# --------------------------------------------
# WRITE ADDRESS = 000001000  READ ADDRESS =000000001 
# THE RESET IS 1
# ----------------------------------------------INPUT MONITOR-------------------------------------------------------
# UVM_INFO ApbScoreboard.sv(46) @ 125: uvm_test_top.env_h.scb_h [SB] ACTUAL TRANSACTION: size = 1 | TRANSFER = 1 | RW = 0 | WPADDR = 8 | WDATA = f1 | RDATA = 41 | RPADDR = 1
# ----------------------------------------------OUTPUT MONITOR-------------------------------------------------------
# UVM_INFO ApbOpMonitor.sv(43) @ 125: uvm_test_top.env_h.pass_h.op_mon_h [OUTPUT MONITOR] [125] transfer =1 , READ_WRITE =0, apb_write_paddr =000001000 , apb_write_data =f1 , apb_read_paddr =1, apb_read_data=41
# ----------------------------------------------OUTPUT MONITOR-------------------------------------------------------
# FOR COMPARING : WRITE DATA =f1 READ DATA OUT =41
# -------------------------------------------------------------------WRITE--PASS---------------------------------------------------------------------
# UVM_INFO ApbScoreboard.sv(84) @ 125: uvm_test_top.env_h.scb_h [COMPARE] WRITE PASS | EXPECTED WDATA = f1  ACTUAL WDATA =f1 |EXPECTED  WRITE ADDR = 8 ACTUAL WRITE ADDR =8
# WRITE_ADDRESS_VALIDITY: ASSERTION PASS
# TRANSFER_VALIDITY: ASSERTION PASS
# UVM_INFO ApbDriver.sv(63) @ 135: uvm_test_top.env_h.act_h.drv_h [DRIVER] [135] presetn = 1, transfer = 1, READ_WRITE = 1, apb_write_paddr = 1ea, apb_write_data = f4, apb_read_paddr = 008
# ---------------------------------DRIVER-------------------
# --------------------------------------------------------------------------------------
# Name                           Type        Size  Value                                
# --------------------------------------------------------------------------------------
# txn                            ApbSeqItem  -     @784                                 
#   apb_write_paddr              integral    9     'h1ea                                
#   apb_read_paddr               integral    9     'h8                                  
#   apb_write_data               integral    8     'hf4                                 
#   transfer                     integral    1     'h1                                  
#   READ_WRITE                   integral    1     'h1                                  
#   apb_read_data_out            integral    8     'h0                                  
#   begin_time                   time        64    125                                  
#   end_time                     time        64    125                                  
#   depth                        int         32    'd2                                  
#   parent sequence (name)       string      5     seq_h                                
#   parent sequence (full name)  string      37    uvm_test_top.env_h.act_h.seqr_h.seq_h
#   sequencer                    string      31    uvm_test_top.env_h.act_h.seqr_h      
# --------------------------------------------------------------------------------------
# --------------------------------------DRIVER----------------------------------
# UVM_INFO ApbScoreboard.sv(46) @ 135: uvm_test_top.env_h.scb_h [SB] ACTUAL TRANSACTION: size = 1 | TRANSFER = 1 | RW = 1 | WPADDR = 8 | WDATA = f1 | RDATA = 41 | RPADDR = 8
# ----------------------------------------------OUTPUT MONITOR-------------------------------------------------------
# UVM_INFO ApbOpMonitor.sv(43) @ 135: uvm_test_top.env_h.pass_h.op_mon_h [OUTPUT MONITOR] [135] transfer =1 , READ_WRITE =1, apb_write_paddr =000001000 , apb_write_data =f1 , apb_read_paddr =1000, apb_read_data=41
# ----------------------------------------------OUTPUT MONITOR-------------------------------------------------------
# UVM_INFO ApbScoreboard.sv(39) @ 135: uvm_test_top.env_h.scb_h [SB] EXPECTED TRANSACTION: size = 1 | TRANSFER = 1 | RW = 1 | WDATA = f1 | WPADDR = 8 | RPADDR = 8
# ----------------------------------------------INPUT MONITOR-------------------------------------------------------
# --------------------------------------------
# Name                 Type        Size  Value
# --------------------------------------------
# ip_mon_h             ApbSeqItem  -     @685 
#   apb_write_paddr    integral    9     'h8  
#   apb_read_paddr     integral    9     'h8  
#   apb_write_data     integral    8     'hf1 
#   transfer           integral    1     'h1  
#   READ_WRITE         integral    1     'h1  
#   apb_read_data_out  integral    8     'h41 
# --------------------------------------------
# WRITE ADDRESS = 000001000  READ ADDRESS =000001000 
# THE RESET IS 1
# ----------------------------------------------INPUT MONITOR-------------------------------------------------------
# FOR COMPARING : WRITE DATA =f1 READ DATA OUT =f1
# -------------------------------------------------------------------------READ FAIL---------------------------------------------------------------------
# UVM_ERROR ApbScoreboard.sv(110) @ 135: uvm_test_top.env_h.scb_h [COMPARE] READ FAIL | EXPECTED  RDATA = f1,EXPECTED  ADDR = 8 | ACTUAL RDATA = 41,ACTUAL ADDR = 8
# READ_ADDRESS_VALIDITY: ASSERTION PASS
# TRANSFER_VALIDITY: ASSERTION PASS
# UVM_INFO ApbDriver.sv(63) @ 145: uvm_test_top.env_h.act_h.drv_h [DRIVER] [145] presetn = 1, transfer = 1, READ_WRITE = 0, apb_write_paddr = 001, apb_write_data = 30, apb_read_paddr = 0f8
# ---------------------------------DRIVER-------------------
# --------------------------------------------------------------------------------------
# Name                           Type        Size  Value                                
# --------------------------------------------------------------------------------------
# txn                            ApbSeqItem  -     @788                                 
#   apb_write_paddr              integral    9     'h1                                  
#   apb_read_paddr               integral    9     'hf8                                 
#   apb_write_data               integral    8     'h30                                 
#   transfer                     integral    1     'h1                                  
#   READ_WRITE                   integral    1     'h0                                  
#   apb_read_data_out            integral    8     'h0                                  
#   begin_time                   time        64    135                                  
#   depth                        int         32    'd2                                  
#   parent sequence (name)       string      5     seq_h                                
#   parent sequence (full name)  string      37    uvm_test_top.env_h.act_h.seqr_h.seq_h
#   sequencer                    string      31    uvm_test_top.env_h.act_h.seqr_h      
# --------------------------------------------------------------------------------------
# --------------------------------------DRIVER----------------------------------
# UVM_INFO ApbScoreboard.sv(39) @ 145: uvm_test_top.env_h.scb_h [SB] EXPECTED TRANSACTION: size = 1 | TRANSFER = 1 | RW = 1 | WDATA = f1 | WPADDR = 8 | RPADDR = 8
# ----------------------------------------------INPUT MONITOR-------------------------------------------------------
# --------------------------------------------
# Name                 Type        Size  Value
# --------------------------------------------
# ip_mon_h             ApbSeqItem  -     @685 
#   apb_write_paddr    integral    9     'h8  
#   apb_read_paddr     integral    9     'h8  
#   apb_write_data     integral    8     'hf1 
#   transfer           integral    1     'h1  
#   READ_WRITE         integral    1     'h1  
#   apb_read_data_out  integral    8     'hf1 
# --------------------------------------------
# WRITE ADDRESS = 000001000  READ ADDRESS =000001000 
# THE RESET IS 1
# ----------------------------------------------INPUT MONITOR-------------------------------------------------------
# UVM_INFO ApbScoreboard.sv(46) @ 145: uvm_test_top.env_h.scb_h [SB] ACTUAL TRANSACTION: size = 1 | TRANSFER = 1 | RW = 1 | WPADDR = 8 | WDATA = f1 | RDATA = f1 | RPADDR = 8
# ----------------------------------------------OUTPUT MONITOR-------------------------------------------------------
# UVM_INFO ApbOpMonitor.sv(43) @ 145: uvm_test_top.env_h.pass_h.op_mon_h [OUTPUT MONITOR] [145] transfer =1 , READ_WRITE =1, apb_write_paddr =000001000 , apb_write_data =f1 , apb_read_paddr =1000, apb_read_data=f1
# ----------------------------------------------OUTPUT MONITOR-------------------------------------------------------
# FOR COMPARING : WRITE DATA =f1 READ DATA OUT =f1
# -------------------------------------------------------------------------READ PASS---------------------------------------------------------------------
# UVM_INFO ApbScoreboard.sv(103) @ 145: uvm_test_top.env_h.scb_h [COMPARE] READ PASS | EXPECTED RDATA = f1  ACTUAL RDATA =f1 |EXPECTED  READ ADDR = 8 ACTUAL READ ADDR =8
# READ_ADDRESS_VALIDITY: ASSERTION PASS
# TRANSFER_VALIDITY: ASSERTION PASS
# UVM_INFO ApbDriver.sv(63) @ 155: uvm_test_top.env_h.act_h.drv_h [DRIVER] [155] presetn = 1, transfer = 1, READ_WRITE = 0, apb_write_paddr = 001, apb_write_data = 30, apb_read_paddr = 0f8
# ---------------------------------DRIVER-------------------
# --------------------------------------------------------------------------------------
# Name                           Type        Size  Value                                
# --------------------------------------------------------------------------------------
# txn                            ApbSeqItem  -     @788                                 
#   apb_write_paddr              integral    9     'h1                                  
#   apb_read_paddr               integral    9     'hf8                                 
#   apb_write_data               integral    8     'h30                                 
#   transfer                     integral    1     'h1                                  
#   READ_WRITE                   integral    1     'h0                                  
#   apb_read_data_out            integral    8     'h0                                  
#   begin_time                   time        64    145                                  
#   end_time                     time        64    145                                  
#   depth                        int         32    'd2                                  
#   parent sequence (name)       string      5     seq_h                                
#   parent sequence (full name)  string      37    uvm_test_top.env_h.act_h.seqr_h.seq_h
#   sequencer                    string      31    uvm_test_top.env_h.act_h.seqr_h      
# --------------------------------------------------------------------------------------
# --------------------------------------DRIVER----------------------------------
# UVM_INFO ApbScoreboard.sv(46) @ 155: uvm_test_top.env_h.scb_h [SB] ACTUAL TRANSACTION: size = 1 | TRANSFER = 1 | RW = 0 | WPADDR = 1 | WDATA = 30 | RDATA = f1 | RPADDR = 8
# ----------------------------------------------OUTPUT MONITOR-------------------------------------------------------
# UVM_INFO ApbOpMonitor.sv(43) @ 155: uvm_test_top.env_h.pass_h.op_mon_h [OUTPUT MONITOR] [155] transfer =1 , READ_WRITE =0, apb_write_paddr =000000001 , apb_write_data =30 , apb_read_paddr =1000, apb_read_data=f1
# ----------------------------------------------OUTPUT MONITOR-------------------------------------------------------
# UVM_INFO ApbScoreboard.sv(39) @ 155: uvm_test_top.env_h.scb_h [SB] EXPECTED TRANSACTION: size = 1 | TRANSFER = 1 | RW = 0 | WDATA = 30 | WPADDR = 1 | RPADDR = 8
# ----------------------------------------------INPUT MONITOR-------------------------------------------------------
# --------------------------------------------
# Name                 Type        Size  Value
# --------------------------------------------
# ip_mon_h             ApbSeqItem  -     @685 
#   apb_write_paddr    integral    9     'h1  
#   apb_read_paddr     integral    9     'h8  
#   apb_write_data     integral    8     'h30 
#   transfer           integral    1     'h1  
#   READ_WRITE         integral    1     'h0  
#   apb_read_data_out  integral    8     'hf1 
# --------------------------------------------
# WRITE ADDRESS = 000000001  READ ADDRESS =000001000 
# THE RESET IS 1
# ----------------------------------------------INPUT MONITOR-------------------------------------------------------
# FOR COMPARING : WRITE DATA =30 READ DATA OUT =f1
# -------------------------------------------------------------------WRITE--PASS---------------------------------------------------------------------
# UVM_INFO ApbScoreboard.sv(84) @ 155: uvm_test_top.env_h.scb_h [COMPARE] WRITE PASS | EXPECTED WDATA = 30  ACTUAL WDATA =30 |EXPECTED  WRITE ADDR = 1 ACTUAL WRITE ADDR =1
# WRITE_ADDRESS_VALIDITY: ASSERTION PASS
# TRANSFER_VALIDITY: ASSERTION PASS
# UVM_INFO ApbDriver.sv(63) @ 165: uvm_test_top.env_h.act_h.drv_h [DRIVER] [165] presetn = 1, transfer = 1, READ_WRITE = 1, apb_write_paddr = 08d, apb_write_data = 12, apb_read_paddr = 001
# ---------------------------------DRIVER-------------------
# --------------------------------------------------------------------------------------
# Name                           Type        Size  Value                                
# --------------------------------------------------------------------------------------
# txn                            ApbSeqItem  -     @792                                 
#   apb_write_paddr              integral    9     'h8d                                 
#   apb_read_paddr               integral    9     'h1                                  
#   apb_write_data               integral    8     'h12                                 
#   transfer                     integral    1     'h1                                  
#   READ_WRITE                   integral    1     'h1                                  
#   apb_read_data_out            integral    8     'h0                                  
#   begin_time                   time        64    155                                  
#   depth                        int         32    'd2                                  
#   parent sequence (name)       string      5     seq_h                                
#   parent sequence (full name)  string      37    uvm_test_top.env_h.act_h.seqr_h.seq_h
#   sequencer                    string      31    uvm_test_top.env_h.act_h.seqr_h      
# --------------------------------------------------------------------------------------
# --------------------------------------DRIVER----------------------------------
# UVM_INFO ApbScoreboard.sv(39) @ 165: uvm_test_top.env_h.scb_h [SB] EXPECTED TRANSACTION: size = 1 | TRANSFER = 1 | RW = 0 | WDATA = 30 | WPADDR = 1 | RPADDR = 8
# ----------------------------------------------INPUT MONITOR-------------------------------------------------------
# --------------------------------------------
# Name                 Type        Size  Value
# --------------------------------------------
# ip_mon_h             ApbSeqItem  -     @685 
#   apb_write_paddr    integral    9     'h1  
#   apb_read_paddr     integral    9     'h8  
#   apb_write_data     integral    8     'h30 
#   transfer           integral    1     'h1  
#   READ_WRITE         integral    1     'h0  
#   apb_read_data_out  integral    8     'hf1 
# --------------------------------------------
# WRITE ADDRESS = 000000001  READ ADDRESS =000001000 
# THE RESET IS 1
# ----------------------------------------------INPUT MONITOR-------------------------------------------------------
# UVM_INFO ApbScoreboard.sv(46) @ 165: uvm_test_top.env_h.scb_h [SB] ACTUAL TRANSACTION: size = 1 | TRANSFER = 1 | RW = 0 | WPADDR = 1 | WDATA = 30 | RDATA = f1 | RPADDR = 8
# ----------------------------------------------OUTPUT MONITOR-------------------------------------------------------
# UVM_INFO ApbOpMonitor.sv(43) @ 165: uvm_test_top.env_h.pass_h.op_mon_h [OUTPUT MONITOR] [165] transfer =1 , READ_WRITE =0, apb_write_paddr =000000001 , apb_write_data =30 , apb_read_paddr =1000, apb_read_data=f1
# ----------------------------------------------OUTPUT MONITOR-------------------------------------------------------
# FOR COMPARING : WRITE DATA =30 READ DATA OUT =f1
# -------------------------------------------------------------------WRITE--PASS---------------------------------------------------------------------
# UVM_INFO ApbScoreboard.sv(84) @ 165: uvm_test_top.env_h.scb_h [COMPARE] WRITE PASS | EXPECTED WDATA = 30  ACTUAL WDATA =30 |EXPECTED  WRITE ADDR = 1 ACTUAL WRITE ADDR =1
# WRITE_ADDRESS_VALIDITY: ASSERTION PASS
# TRANSFER_VALIDITY: ASSERTION PASS
# UVM_INFO ApbDriver.sv(63) @ 175: uvm_test_top.env_h.act_h.drv_h [DRIVER] [175] presetn = 1, transfer = 1, READ_WRITE = 1, apb_write_paddr = 08d, apb_write_data = 12, apb_read_paddr = 001
# ---------------------------------DRIVER-------------------
# --------------------------------------------------------------------------------------
# Name                           Type        Size  Value                                
# --------------------------------------------------------------------------------------
# txn                            ApbSeqItem  -     @792                                 
#   apb_write_paddr              integral    9     'h8d                                 
#   apb_read_paddr               integral    9     'h1                                  
#   apb_write_data               integral    8     'h12                                 
#   transfer                     integral    1     'h1                                  
#   READ_WRITE                   integral    1     'h1                                  
#   apb_read_data_out            integral    8     'h0                                  
#   begin_time                   time        64    165                                  
#   end_time                     time        64    165                                  
#   depth                        int         32    'd2                                  
#   parent sequence (name)       string      5     seq_h                                
#   parent sequence (full name)  string      37    uvm_test_top.env_h.act_h.seqr_h.seq_h
#   sequencer                    string      31    uvm_test_top.env_h.act_h.seqr_h      
# --------------------------------------------------------------------------------------
# --------------------------------------DRIVER----------------------------------
# UVM_INFO ApbScoreboard.sv(46) @ 175: uvm_test_top.env_h.scb_h [SB] ACTUAL TRANSACTION: size = 1 | TRANSFER = 1 | RW = 1 | WPADDR = 1 | WDATA = 30 | RDATA = f1 | RPADDR = 1
# ----------------------------------------------OUTPUT MONITOR-------------------------------------------------------
# UVM_INFO ApbOpMonitor.sv(43) @ 175: uvm_test_top.env_h.pass_h.op_mon_h [OUTPUT MONITOR] [175] transfer =1 , READ_WRITE =1, apb_write_paddr =000000001 , apb_write_data =30 , apb_read_paddr =1, apb_read_data=f1
# ----------------------------------------------OUTPUT MONITOR-------------------------------------------------------
# UVM_INFO ApbScoreboard.sv(39) @ 175: uvm_test_top.env_h.scb_h [SB] EXPECTED TRANSACTION: size = 1 | TRANSFER = 1 | RW = 1 | WDATA = 30 | WPADDR = 1 | RPADDR = 1
# ----------------------------------------------INPUT MONITOR-------------------------------------------------------
# --------------------------------------------
# Name                 Type        Size  Value
# --------------------------------------------
# ip_mon_h             ApbSeqItem  -     @685 
#   apb_write_paddr    integral    9     'h1  
#   apb_read_paddr     integral    9     'h1  
#   apb_write_data     integral    8     'h30 
#   transfer           integral    1     'h1  
#   READ_WRITE         integral    1     'h1  
#   apb_read_data_out  integral    8     'hf1 
# --------------------------------------------
# WRITE ADDRESS = 000000001  READ ADDRESS =000000001 
# THE RESET IS 1
# ----------------------------------------------INPUT MONITOR-------------------------------------------------------
# FOR COMPARING : WRITE DATA =30 READ DATA OUT =30
# -------------------------------------------------------------------------READ FAIL---------------------------------------------------------------------
# UVM_ERROR ApbScoreboard.sv(110) @ 175: uvm_test_top.env_h.scb_h [COMPARE] READ FAIL | EXPECTED  RDATA = 30,EXPECTED  ADDR = 1 | ACTUAL RDATA = f1,ACTUAL ADDR = 1
# READ_ADDRESS_VALIDITY: ASSERTION PASS
# TRANSFER_VALIDITY: ASSERTION PASS
# UVM_INFO ApbDriver.sv(63) @ 185: uvm_test_top.env_h.act_h.drv_h [DRIVER] [185] presetn = 1, transfer = 1, READ_WRITE = 0, apb_write_paddr = 006, apb_write_data = 33, apb_read_paddr = 13e
# ---------------------------------DRIVER-------------------
# --------------------------------------------------------------------------------------
# Name                           Type        Size  Value                                
# --------------------------------------------------------------------------------------
# txn                            ApbSeqItem  -     @796                                 
#   apb_write_paddr              integral    9     'h6                                  
#   apb_read_paddr               integral    9     'h13e                                
#   apb_write_data               integral    8     'h33                                 
#   transfer                     integral    1     'h1                                  
#   READ_WRITE                   integral    1     'h0                                  
#   apb_read_data_out            integral    8     'h0                                  
#   begin_time                   time        64    175                                  
#   depth                        int         32    'd2                                  
#   parent sequence (name)       string      5     seq_h                                
#   parent sequence (full name)  string      37    uvm_test_top.env_h.act_h.seqr_h.seq_h
#   sequencer                    string      31    uvm_test_top.env_h.act_h.seqr_h      
# --------------------------------------------------------------------------------------
# --------------------------------------DRIVER----------------------------------
# UVM_INFO ApbScoreboard.sv(39) @ 185: uvm_test_top.env_h.scb_h [SB] EXPECTED TRANSACTION: size = 1 | TRANSFER = 1 | RW = 1 | WDATA = 30 | WPADDR = 1 | RPADDR = 1
# ----------------------------------------------INPUT MONITOR-------------------------------------------------------
# --------------------------------------------
# Name                 Type        Size  Value
# --------------------------------------------
# ip_mon_h             ApbSeqItem  -     @685 
#   apb_write_paddr    integral    9     'h1  
#   apb_read_paddr     integral    9     'h1  
#   apb_write_data     integral    8     'h30 
#   transfer           integral    1     'h1  
#   READ_WRITE         integral    1     'h1  
#   apb_read_data_out  integral    8     'h30 
# --------------------------------------------
# WRITE ADDRESS = 000000001  READ ADDRESS =000000001 
# THE RESET IS 1
# ----------------------------------------------INPUT MONITOR-------------------------------------------------------
# UVM_INFO ApbScoreboard.sv(46) @ 185: uvm_test_top.env_h.scb_h [SB] ACTUAL TRANSACTION: size = 1 | TRANSFER = 1 | RW = 1 | WPADDR = 1 | WDATA = 30 | RDATA = 30 | RPADDR = 1
# ----------------------------------------------OUTPUT MONITOR-------------------------------------------------------
# UVM_INFO ApbOpMonitor.sv(43) @ 185: uvm_test_top.env_h.pass_h.op_mon_h [OUTPUT MONITOR] [185] transfer =1 , READ_WRITE =1, apb_write_paddr =000000001 , apb_write_data =30 , apb_read_paddr =1, apb_read_data=30
# ----------------------------------------------OUTPUT MONITOR-------------------------------------------------------
# FOR COMPARING : WRITE DATA =30 READ DATA OUT =30
# -------------------------------------------------------------------------READ PASS---------------------------------------------------------------------
# UVM_INFO ApbScoreboard.sv(103) @ 185: uvm_test_top.env_h.scb_h [COMPARE] READ PASS | EXPECTED RDATA = 30  ACTUAL RDATA =30 |EXPECTED  READ ADDR = 1 ACTUAL READ ADDR =1
# READ_ADDRESS_VALIDITY: ASSERTION PASS
# TRANSFER_VALIDITY: ASSERTION PASS
# UVM_INFO ApbDriver.sv(63) @ 195: uvm_test_top.env_h.act_h.drv_h [DRIVER] [195] presetn = 1, transfer = 1, READ_WRITE = 0, apb_write_paddr = 006, apb_write_data = 33, apb_read_paddr = 13e
# ---------------------------------DRIVER-------------------
# --------------------------------------------------------------------------------------
# Name                           Type        Size  Value                                
# --------------------------------------------------------------------------------------
# txn                            ApbSeqItem  -     @796                                 
#   apb_write_paddr              integral    9     'h6                                  
#   apb_read_paddr               integral    9     'h13e                                
#   apb_write_data               integral    8     'h33                                 
#   transfer                     integral    1     'h1                                  
#   READ_WRITE                   integral    1     'h0                                  
#   apb_read_data_out            integral    8     'h0                                  
#   begin_time                   time        64    185                                  
#   end_time                     time        64    185                                  
#   depth                        int         32    'd2                                  
#   parent sequence (name)       string      5     seq_h                                
#   parent sequence (full name)  string      37    uvm_test_top.env_h.act_h.seqr_h.seq_h
#   sequencer                    string      31    uvm_test_top.env_h.act_h.seqr_h      
# --------------------------------------------------------------------------------------
# --------------------------------------DRIVER----------------------------------
# UVM_INFO ApbScoreboard.sv(46) @ 195: uvm_test_top.env_h.scb_h [SB] ACTUAL TRANSACTION: size = 1 | TRANSFER = 1 | RW = 0 | WPADDR = 6 | WDATA = 33 | RDATA = 30 | RPADDR = 1
# ----------------------------------------------OUTPUT MONITOR-------------------------------------------------------
# UVM_INFO ApbOpMonitor.sv(43) @ 195: uvm_test_top.env_h.pass_h.op_mon_h [OUTPUT MONITOR] [195] transfer =1 , READ_WRITE =0, apb_write_paddr =000000110 , apb_write_data =33 , apb_read_paddr =1, apb_read_data=30
# ----------------------------------------------OUTPUT MONITOR-------------------------------------------------------
# UVM_INFO ApbScoreboard.sv(39) @ 195: uvm_test_top.env_h.scb_h [SB] EXPECTED TRANSACTION: size = 1 | TRANSFER = 1 | RW = 0 | WDATA = 33 | WPADDR = 6 | RPADDR = 1
# ----------------------------------------------INPUT MONITOR-------------------------------------------------------
# --------------------------------------------
# Name                 Type        Size  Value
# --------------------------------------------
# ip_mon_h             ApbSeqItem  -     @685 
#   apb_write_paddr    integral    9     'h6  
#   apb_read_paddr     integral    9     'h1  
#   apb_write_data     integral    8     'h33 
#   transfer           integral    1     'h1  
#   READ_WRITE         integral    1     'h0  
#   apb_read_data_out  integral    8     'h30 
# --------------------------------------------
# WRITE ADDRESS = 000000110  READ ADDRESS =000000001 
# THE RESET IS 1
# ----------------------------------------------INPUT MONITOR-------------------------------------------------------
# FOR COMPARING : WRITE DATA =33 READ DATA OUT =30
# -------------------------------------------------------------------WRITE--PASS---------------------------------------------------------------------
# UVM_INFO ApbScoreboard.sv(84) @ 195: uvm_test_top.env_h.scb_h [COMPARE] WRITE PASS | EXPECTED WDATA = 33  ACTUAL WDATA =33 |EXPECTED  WRITE ADDR = 6 ACTUAL WRITE ADDR =6
# WRITE_ADDRESS_VALIDITY: ASSERTION PASS
# TRANSFER_VALIDITY: ASSERTION PASS
# UVM_INFO ApbDriver.sv(63) @ 205: uvm_test_top.env_h.act_h.drv_h [DRIVER] [205] presetn = 1, transfer = 1, READ_WRITE = 1, apb_write_paddr = 04d, apb_write_data = 01, apb_read_paddr = 006
# ---------------------------------DRIVER-------------------
# --------------------------------------------------------------------------------------
# Name                           Type        Size  Value                                
# --------------------------------------------------------------------------------------
# txn                            ApbSeqItem  -     @800                                 
#   apb_write_paddr              integral    9     'h4d                                 
#   apb_read_paddr               integral    9     'h6                                  
#   apb_write_data               integral    8     'h1                                  
#   transfer                     integral    1     'h1                                  
#   READ_WRITE                   integral    1     'h1                                  
#   apb_read_data_out            integral    8     'h0                                  
#   begin_time                   time        64    195                                  
#   depth                        int         32    'd2                                  
#   parent sequence (name)       string      5     seq_h                                
#   parent sequence (full name)  string      37    uvm_test_top.env_h.act_h.seqr_h.seq_h
#   sequencer                    string      31    uvm_test_top.env_h.act_h.seqr_h      
# --------------------------------------------------------------------------------------
# --------------------------------------DRIVER----------------------------------
# UVM_INFO ApbScoreboard.sv(39) @ 205: uvm_test_top.env_h.scb_h [SB] EXPECTED TRANSACTION: size = 1 | TRANSFER = 1 | RW = 0 | WDATA = 33 | WPADDR = 6 | RPADDR = 1
# ----------------------------------------------INPUT MONITOR-------------------------------------------------------
# --------------------------------------------
# Name                 Type        Size  Value
# --------------------------------------------
# ip_mon_h             ApbSeqItem  -     @685 
#   apb_write_paddr    integral    9     'h6  
#   apb_read_paddr     integral    9     'h1  
#   apb_write_data     integral    8     'h33 
#   transfer           integral    1     'h1  
#   READ_WRITE         integral    1     'h0  
#   apb_read_data_out  integral    8     'h30 
# --------------------------------------------
# WRITE ADDRESS = 000000110  READ ADDRESS =000000001 
# THE RESET IS 1
# ----------------------------------------------INPUT MONITOR-------------------------------------------------------
# UVM_INFO ApbScoreboard.sv(46) @ 205: uvm_test_top.env_h.scb_h [SB] ACTUAL TRANSACTION: size = 1 | TRANSFER = 1 | RW = 0 | WPADDR = 6 | WDATA = 33 | RDATA = 30 | RPADDR = 1
# ----------------------------------------------OUTPUT MONITOR-------------------------------------------------------
# UVM_INFO ApbOpMonitor.sv(43) @ 205: uvm_test_top.env_h.pass_h.op_mon_h [OUTPUT MONITOR] [205] transfer =1 , READ_WRITE =0, apb_write_paddr =000000110 , apb_write_data =33 , apb_read_paddr =1, apb_read_data=30
# ----------------------------------------------OUTPUT MONITOR-------------------------------------------------------
# FOR COMPARING : WRITE DATA =33 READ DATA OUT =30
# -------------------------------------------------------------------WRITE--PASS---------------------------------------------------------------------
# UVM_INFO ApbScoreboard.sv(84) @ 205: uvm_test_top.env_h.scb_h [COMPARE] WRITE PASS | EXPECTED WDATA = 33  ACTUAL WDATA =33 |EXPECTED  WRITE ADDR = 6 ACTUAL WRITE ADDR =6
# WRITE_ADDRESS_VALIDITY: ASSERTION PASS
# TRANSFER_VALIDITY: ASSERTION PASS
# UVM_INFO ApbDriver.sv(63) @ 215: uvm_test_top.env_h.act_h.drv_h [DRIVER] [215] presetn = 1, transfer = 1, READ_WRITE = 1, apb_write_paddr = 04d, apb_write_data = 01, apb_read_paddr = 006
# ---------------------------------DRIVER-------------------
# --------------------------------------------------------------------------------------
# Name                           Type        Size  Value                                
# --------------------------------------------------------------------------------------
# txn                            ApbSeqItem  -     @800                                 
#   apb_write_paddr              integral    9     'h4d                                 
#   apb_read_paddr               integral    9     'h6                                  
#   apb_write_data               integral    8     'h1                                  
#   transfer                     integral    1     'h1                                  
#   READ_WRITE                   integral    1     'h1                                  
#   apb_read_data_out            integral    8     'h0                                  
#   begin_time                   time        64    205                                  
#   end_time                     time        64    205                                  
#   depth                        int         32    'd2                                  
#   parent sequence (name)       string      5     seq_h                                
#   parent sequence (full name)  string      37    uvm_test_top.env_h.act_h.seqr_h.seq_h
#   sequencer                    string      31    uvm_test_top.env_h.act_h.seqr_h      
# --------------------------------------------------------------------------------------
# --------------------------------------DRIVER----------------------------------
# UVM_INFO ApbScoreboard.sv(46) @ 215: uvm_test_top.env_h.scb_h [SB] ACTUAL TRANSACTION: size = 1 | TRANSFER = 1 | RW = 1 | WPADDR = 6 | WDATA = 33 | RDATA = 30 | RPADDR = 6
# ----------------------------------------------OUTPUT MONITOR-------------------------------------------------------
# UVM_INFO ApbOpMonitor.sv(43) @ 215: uvm_test_top.env_h.pass_h.op_mon_h [OUTPUT MONITOR] [215] transfer =1 , READ_WRITE =1, apb_write_paddr =000000110 , apb_write_data =33 , apb_read_paddr =110, apb_read_data=30
# ----------------------------------------------OUTPUT MONITOR-------------------------------------------------------
# UVM_INFO ApbScoreboard.sv(39) @ 215: uvm_test_top.env_h.scb_h [SB] EXPECTED TRANSACTION: size = 1 | TRANSFER = 1 | RW = 1 | WDATA = 33 | WPADDR = 6 | RPADDR = 6
# ----------------------------------------------INPUT MONITOR-------------------------------------------------------
# --------------------------------------------
# Name                 Type        Size  Value
# --------------------------------------------
# ip_mon_h             ApbSeqItem  -     @685 
#   apb_write_paddr    integral    9     'h6  
#   apb_read_paddr     integral    9     'h6  
#   apb_write_data     integral    8     'h33 
#   transfer           integral    1     'h1  
#   READ_WRITE         integral    1     'h1  
#   apb_read_data_out  integral    8     'h30 
# --------------------------------------------
# WRITE ADDRESS = 000000110  READ ADDRESS =000000110 
# THE RESET IS 1
# ----------------------------------------------INPUT MONITOR-------------------------------------------------------
# FOR COMPARING : WRITE DATA =33 READ DATA OUT =33
# -------------------------------------------------------------------------READ FAIL---------------------------------------------------------------------
# UVM_ERROR ApbScoreboard.sv(110) @ 215: uvm_test_top.env_h.scb_h [COMPARE] READ FAIL | EXPECTED  RDATA = 33,EXPECTED  ADDR = 6 | ACTUAL RDATA = 30,ACTUAL ADDR = 6
# READ_ADDRESS_VALIDITY: ASSERTION PASS
# TRANSFER_VALIDITY: ASSERTION PASS
# UVM_INFO ApbDriver.sv(63) @ 225: uvm_test_top.env_h.act_h.drv_h [DRIVER] [225] presetn = 1, transfer = 1, READ_WRITE = 0, apb_write_paddr = 006, apb_write_data = 9e, apb_read_paddr = 193
# ---------------------------------DRIVER-------------------
# --------------------------------------------------------------------------------------
# Name                           Type        Size  Value                                
# --------------------------------------------------------------------------------------
# txn                            ApbSeqItem  -     @804                                 
#   apb_write_paddr              integral    9     'h6                                  
#   apb_read_paddr               integral    9     'h193                                
#   apb_write_data               integral    8     'h9e                                 
#   transfer                     integral    1     'h1                                  
#   READ_WRITE                   integral    1     'h0                                  
#   apb_read_data_out            integral    8     'h0                                  
#   begin_time                   time        64    215                                  
#   depth                        int         32    'd2                                  
#   parent sequence (name)       string      5     seq_h                                
#   parent sequence (full name)  string      37    uvm_test_top.env_h.act_h.seqr_h.seq_h
#   sequencer                    string      31    uvm_test_top.env_h.act_h.seqr_h      
# --------------------------------------------------------------------------------------
# --------------------------------------DRIVER----------------------------------
# UVM_INFO ApbScoreboard.sv(39) @ 225: uvm_test_top.env_h.scb_h [SB] EXPECTED TRANSACTION: size = 1 | TRANSFER = 1 | RW = 1 | WDATA = 33 | WPADDR = 6 | RPADDR = 6
# ----------------------------------------------INPUT MONITOR-------------------------------------------------------
# --------------------------------------------
# Name                 Type        Size  Value
# --------------------------------------------
# ip_mon_h             ApbSeqItem  -     @685 
#   apb_write_paddr    integral    9     'h6  
#   apb_read_paddr     integral    9     'h6  
#   apb_write_data     integral    8     'h33 
#   transfer           integral    1     'h1  
#   READ_WRITE         integral    1     'h1  
#   apb_read_data_out  integral    8     'h33 
# --------------------------------------------
# WRITE ADDRESS = 000000110  READ ADDRESS =000000110 
# THE RESET IS 1
# ----------------------------------------------INPUT MONITOR-------------------------------------------------------
# UVM_INFO ApbScoreboard.sv(46) @ 225: uvm_test_top.env_h.scb_h [SB] ACTUAL TRANSACTION: size = 1 | TRANSFER = 1 | RW = 1 | WPADDR = 6 | WDATA = 33 | RDATA = 33 | RPADDR = 6
# ----------------------------------------------OUTPUT MONITOR-------------------------------------------------------
# UVM_INFO ApbOpMonitor.sv(43) @ 225: uvm_test_top.env_h.pass_h.op_mon_h [OUTPUT MONITOR] [225] transfer =1 , READ_WRITE =1, apb_write_paddr =000000110 , apb_write_data =33 , apb_read_paddr =110, apb_read_data=33
# ----------------------------------------------OUTPUT MONITOR-------------------------------------------------------
# FOR COMPARING : WRITE DATA =33 READ DATA OUT =33
# -------------------------------------------------------------------------READ PASS---------------------------------------------------------------------
# UVM_INFO ApbScoreboard.sv(103) @ 225: uvm_test_top.env_h.scb_h [COMPARE] READ PASS | EXPECTED RDATA = 33  ACTUAL RDATA =33 |EXPECTED  READ ADDR = 6 ACTUAL READ ADDR =6
# READ_ADDRESS_VALIDITY: ASSERTION PASS
# TRANSFER_VALIDITY: ASSERTION PASS
# UVM_INFO ApbDriver.sv(63) @ 235: uvm_test_top.env_h.act_h.drv_h [DRIVER] [235] presetn = 1, transfer = 1, READ_WRITE = 0, apb_write_paddr = 006, apb_write_data = 9e, apb_read_paddr = 193
# ---------------------------------DRIVER-------------------
# --------------------------------------------------------------------------------------
# Name                           Type        Size  Value                                
# --------------------------------------------------------------------------------------
# txn                            ApbSeqItem  -     @804                                 
#   apb_write_paddr              integral    9     'h6                                  
#   apb_read_paddr               integral    9     'h193                                
#   apb_write_data               integral    8     'h9e                                 
#   transfer                     integral    1     'h1                                  
#   READ_WRITE                   integral    1     'h0                                  
#   apb_read_data_out            integral    8     'h0                                  
#   begin_time                   time        64    225                                  
#   end_time                     time        64    225                                  
#   depth                        int         32    'd2                                  
#   parent sequence (name)       string      5     seq_h                                
#   parent sequence (full name)  string      37    uvm_test_top.env_h.act_h.seqr_h.seq_h
#   sequencer                    string      31    uvm_test_top.env_h.act_h.seqr_h      
# --------------------------------------------------------------------------------------
# --------------------------------------DRIVER----------------------------------
# UVM_INFO ApbScoreboard.sv(46) @ 235: uvm_test_top.env_h.scb_h [SB] ACTUAL TRANSACTION: size = 1 | TRANSFER = 1 | RW = 0 | WPADDR = 6 | WDATA = 9e | RDATA = 33 | RPADDR = 6
# ----------------------------------------------OUTPUT MONITOR-------------------------------------------------------
# UVM_INFO ApbOpMonitor.sv(43) @ 235: uvm_test_top.env_h.pass_h.op_mon_h [OUTPUT MONITOR] [235] transfer =1 , READ_WRITE =0, apb_write_paddr =000000110 , apb_write_data =9e , apb_read_paddr =110, apb_read_data=33
# ----------------------------------------------OUTPUT MONITOR-------------------------------------------------------
# UVM_INFO ApbScoreboard.sv(39) @ 235: uvm_test_top.env_h.scb_h [SB] EXPECTED TRANSACTION: size = 1 | TRANSFER = 1 | RW = 0 | WDATA = 9e | WPADDR = 6 | RPADDR = 6
# ----------------------------------------------INPUT MONITOR-------------------------------------------------------
# --------------------------------------------
# Name                 Type        Size  Value
# --------------------------------------------
# ip_mon_h             ApbSeqItem  -     @685 
#   apb_write_paddr    integral    9     'h6  
#   apb_read_paddr     integral    9     'h6  
#   apb_write_data     integral    8     'h9e 
#   transfer           integral    1     'h1  
#   READ_WRITE         integral    1     'h0  
#   apb_read_data_out  integral    8     'h33 
# --------------------------------------------
# WRITE ADDRESS = 000000110  READ ADDRESS =000000110 
# THE RESET IS 1
# ----------------------------------------------INPUT MONITOR-------------------------------------------------------
# FOR COMPARING : WRITE DATA =9e READ DATA OUT =9e
# -------------------------------------------------------------------WRITE--PASS---------------------------------------------------------------------
# UVM_INFO ApbScoreboard.sv(84) @ 235: uvm_test_top.env_h.scb_h [COMPARE] WRITE PASS | EXPECTED WDATA = 9e  ACTUAL WDATA =9e |EXPECTED  WRITE ADDR = 6 ACTUAL WRITE ADDR =6
# WRITE_ADDRESS_VALIDITY: ASSERTION PASS
# TRANSFER_VALIDITY: ASSERTION PASS
# UVM_INFO ApbDriver.sv(63) @ 245: uvm_test_top.env_h.act_h.drv_h [DRIVER] [245] presetn = 1, transfer = 1, READ_WRITE = 1, apb_write_paddr = 18d, apb_write_data = e3, apb_read_paddr = 006
# ---------------------------------DRIVER-------------------
# --------------------------------------------------------------------------------------
# Name                           Type        Size  Value                                
# --------------------------------------------------------------------------------------
# txn                            ApbSeqItem  -     @808                                 
#   apb_write_paddr              integral    9     'h18d                                
#   apb_read_paddr               integral    9     'h6                                  
#   apb_write_data               integral    8     'he3                                 
#   transfer                     integral    1     'h1                                  
#   READ_WRITE                   integral    1     'h1                                  
#   apb_read_data_out            integral    8     'h0                                  
#   begin_time                   time        64    235                                  
#   depth                        int         32    'd2                                  
#   parent sequence (name)       string      5     seq_h                                
#   parent sequence (full name)  string      37    uvm_test_top.env_h.act_h.seqr_h.seq_h
#   sequencer                    string      31    uvm_test_top.env_h.act_h.seqr_h      
# --------------------------------------------------------------------------------------
# --------------------------------------DRIVER----------------------------------
# UVM_INFO ApbScoreboard.sv(39) @ 245: uvm_test_top.env_h.scb_h [SB] EXPECTED TRANSACTION: size = 1 | TRANSFER = 1 | RW = 0 | WDATA = 9e | WPADDR = 6 | RPADDR = 6
# ----------------------------------------------INPUT MONITOR-------------------------------------------------------
# --------------------------------------------
# Name                 Type        Size  Value
# --------------------------------------------
# ip_mon_h             ApbSeqItem  -     @685 
#   apb_write_paddr    integral    9     'h6  
#   apb_read_paddr     integral    9     'h6  
#   apb_write_data     integral    8     'h9e 
#   transfer           integral    1     'h1  
#   READ_WRITE         integral    1     'h0  
#   apb_read_data_out  integral    8     'h33 
# --------------------------------------------
# WRITE ADDRESS = 000000110  READ ADDRESS =000000110 
# THE RESET IS 1
# ----------------------------------------------INPUT MONITOR-------------------------------------------------------
# UVM_INFO ApbScoreboard.sv(46) @ 245: uvm_test_top.env_h.scb_h [SB] ACTUAL TRANSACTION: size = 1 | TRANSFER = 1 | RW = 0 | WPADDR = 6 | WDATA = 9e | RDATA = 33 | RPADDR = 6
# ----------------------------------------------OUTPUT MONITOR-------------------------------------------------------
# UVM_INFO ApbOpMonitor.sv(43) @ 245: uvm_test_top.env_h.pass_h.op_mon_h [OUTPUT MONITOR] [245] transfer =1 , READ_WRITE =0, apb_write_paddr =000000110 , apb_write_data =9e , apb_read_paddr =110, apb_read_data=33
# ----------------------------------------------OUTPUT MONITOR-------------------------------------------------------
# FOR COMPARING : WRITE DATA =9e READ DATA OUT =9e
# -------------------------------------------------------------------WRITE--PASS---------------------------------------------------------------------
# UVM_INFO ApbScoreboard.sv(84) @ 245: uvm_test_top.env_h.scb_h [COMPARE] WRITE PASS | EXPECTED WDATA = 9e  ACTUAL WDATA =9e |EXPECTED  WRITE ADDR = 6 ACTUAL WRITE ADDR =6
# WRITE_ADDRESS_VALIDITY: ASSERTION PASS
# TRANSFER_VALIDITY: ASSERTION PASS
# UVM_INFO ApbDriver.sv(63) @ 255: uvm_test_top.env_h.act_h.drv_h [DRIVER] [255] presetn = 1, transfer = 1, READ_WRITE = 1, apb_write_paddr = 18d, apb_write_data = e3, apb_read_paddr = 006
# ---------------------------------DRIVER-------------------
# --------------------------------------------------------------------------------------
# Name                           Type        Size  Value                                
# --------------------------------------------------------------------------------------
# txn                            ApbSeqItem  -     @808                                 
#   apb_write_paddr              integral    9     'h18d                                
#   apb_read_paddr               integral    9     'h6                                  
#   apb_write_data               integral    8     'he3                                 
#   transfer                     integral    1     'h1                                  
#   READ_WRITE                   integral    1     'h1                                  
#   apb_read_data_out            integral    8     'h0                                  
#   begin_time                   time        64    245                                  
#   end_time                     time        64    245                                  
#   depth                        int         32    'd2                                  
#   parent sequence (name)       string      5     seq_h                                
#   parent sequence (full name)  string      37    uvm_test_top.env_h.act_h.seqr_h.seq_h
#   sequencer                    string      31    uvm_test_top.env_h.act_h.seqr_h      
# --------------------------------------------------------------------------------------
# --------------------------------------DRIVER----------------------------------
# UVM_INFO ApbScoreboard.sv(46) @ 255: uvm_test_top.env_h.scb_h [SB] ACTUAL TRANSACTION: size = 1 | TRANSFER = 1 | RW = 1 | WPADDR = 6 | WDATA = 9e | RDATA = 33 | RPADDR = 6
