# vsim -c top 
# Start time: 10:00:47 on Apr 28,2025
# ** Note: (vsim-3813) Design is being optimized due to module recompilation...
# //  Questa Sim
# //  Version 10.6c linux Jul 25 2017
# //
# //  Copyright 1991-2017 Mentor Graphics Corporation
# //  All Rights Reserved.
# //
# //  QuestaSim and its associated documentation contain trade
# //  secrets and commercial or financial information that are the property of
# //  Mentor Graphics Corporation and are privileged, confidential,
# //  and exempt from disclosure under the Freedom of Information Act,
# //  5 U.S.C. Section 552. Furthermore, this information
# //  is prohibited from disclosure under the Trade Secrets Act,
# //  18 U.S.C. Section 1905.
# //
# Loading sv_std.std
# Loading mtiUvm.uvm_pkg
# Loading work.ApbTop_sv_unit(fast)
# Loading work.top(fast)
# Loading mtiUvm.questa_uvm_pkg(fast)
# Loading work.ApbInterface(fast)
# Loading /tools/mentor/questasim_10.6c/questasim/uvm-1.1d/linux/uvm_dpi.so
# ----------------------------------------------------------------
# UVM-1.1d
# (C) 2007-2013 Mentor Graphics Corporation
# (C) 2007-2013 Cadence Design Systems, Inc.
# (C) 2006-2013 Synopsys, Inc.
# (C) 2011-2013 Cypress Semiconductor Corp.
# ----------------------------------------------------------------
# 
#   ***********       IMPORTANT RELEASE NOTES         ************
# 
#   You are using a version of the UVM library that has been compiled
#   with `UVM_NO_DEPRECATED undefined.
#   See http://www.eda.org/svdb/view.php?id=3313 for more details.
# 
#   You are using a version of the UVM library that has been compiled
#   with `UVM_OBJECT_MUST_HAVE_CONSTRUCTOR undefined.
#   See http://www.eda.org/svdb/view.php?id=3770 for more details.
# 
#       (Specify +UVM_NO_RELNOTES to turn off this notice)
# 
# UVM_INFO verilog_src/questa_uvm_pkg-1.2/src/questa_uvm_pkg.sv(215) @ 0: reporter [Questa UVM] QUESTA_UVM-1.2.3
# UVM_INFO verilog_src/questa_uvm_pkg-1.2/src/questa_uvm_pkg.sv(217) @ 0: reporter [Questa UVM]  questa_uvm::init(+struct)
# UVM_INFO @ 0: reporter [RNTST] Running test ApbWriteSlave1Test...
# UVM_INFO @ 0: reporter [UVMTOP] UVM testbench topology:
# ------------------------------------------------------------------
# Name                         Type                      Size  Value
# ------------------------------------------------------------------
# uvm_test_top                 ApbWriteSlave1Test        -     @471 
#   env_h                      ApbEnvironment            -     @478 
#     act_h                    ApbActiveAgent            -     @485 
#       drv_h                  ApbDriver                 -     @537 
#         rsp_port             uvm_analysis_port         -     @552 
#         seq_item_port        uvm_seq_item_pull_port    -     @544 
#       ip_mon_h               ApbIpMonitor              -     @669 
#         item_collected_port  uvm_analysis_port         -     @676 
#       seqr_h                 ApbSequencer              -     @560 
#         rsp_export           uvm_analysis_export       -     @567 
#         seq_item_export      uvm_seq_item_pull_imp     -     @661 
#         arbitration_queue    array                     0     -    
#         lock_queue           array                     0     -    
#         num_last_reqs        integral                  32    'd1  
#         num_last_rsps        integral                  32    'd1  
#     cov_h                    ApbCoverage               -     @506 
#       analysis_imp           uvm_analysis_imp          -     @513 
#       ip_mon_imp             uvm_analysis_imp_ip_mon   -     @521 
#       op_mon_imp             uvm_analysis_imp_op_mon   -     @529 
#     pass_h                   ApbPassiveAgent           -     @492 
#       op_mon_h               ApbOpMonitor              -     @695 
#         item_collected_port  uvm_analysis_port         -     @702 
#     scb_h                    ApbScoreboard             -     @499 
#       in_mon_port            uvm_analysis_imp_in_mon   -     @715 
#       out_mon_port           uvm_analysis_imp_out_mon  -     @723 
# ------------------------------------------------------------------
# 
# WRITE ADDRESS == 010011100
# UVM_INFO ApbDriver.sv(56) @ 5: uvm_test_top.env_h.act_h.drv_h [DRIVER] [5] presetn = 0, transfer = 1, READ_WRITE = 1, apb_write_paddr = 09c, apb_write_data = 008, apb_read_paddr = 195
# ---------------------------------DRIVER-------------------
# --------------------------------------------------------------------------------------
# Name                           Type        Size  Value                                
# --------------------------------------------------------------------------------------
# txn                            ApbSeqItem  -     @739                                 
#   apb_write_paddr              integral    9     'h9c                                 
#   apb_read_paddr               integral    9     'h195                                
#   apb_write_data               integral    9     'h8                                  
#   transfer                     integral    1     'h1                                  
#   READ_WRITE                   integral    1     'h1                                  
#   apb_read_data_out            integral    9     'h0                                  
#   begin_time                   time        64    0                                    
#   depth                        int         32    'd2                                  
#   parent sequence (name)       string      5     seq_h                                
#   parent sequence (full name)  string      37    uvm_test_top.env_h.act_h.seqr_h.seq_h
#   sequencer                    string      31    uvm_test_top.env_h.act_h.seqr_h      
# --------------------------------------------------------------------------------------
# --------------------------------------DRIVER----------------------------------
# UVM_INFO ApbScoreboard.sv(43) @ 5: uvm_test_top.env_h.scb_h [SB] Got exp_trans: queue size = 1  TRANSFER =0 , READ_WRITE = 0, APB_WRITE_DATA = 0, APB_WRITE_PADDR = 0, APB_READ_PADDR = 0
# ----------------------------------------------------------------------------------------------------
# ----------------------------------------------INPUT MONITOR-------------------------------------------------------
# --------------------------------------------
# Name                 Type        Size  Value
# --------------------------------------------
# ip_mon_h             ApbSeqItem  -     @685 
#   apb_write_paddr    integral    9     'h0  
#   apb_read_paddr     integral    9     'h0  
#   apb_write_data     integral    9     'h0  
#   transfer           integral    1     'h0  
#   READ_WRITE         integral    1     'h0  
#   apb_read_data_out  integral    9     'h0  
# --------------------------------------------
# WRITE ADDRESS = 000000000 
# THE RESET IS 0
# ----------------------------------------------INPUT MONITOR-------------------------------------------------------
# WRITE ADDRESS == 001010010
# UVM_INFO ApbDriver.sv(56) @ 15: uvm_test_top.env_h.act_h.drv_h [DRIVER] [15] presetn = 1, transfer = 1, READ_WRITE = 1, apb_write_paddr = 052, apb_write_data = 0f3, apb_read_paddr = 1d3
# ---------------------------------DRIVER-------------------
# --------------------------------------------------------------------------------------
# Name                           Type        Size  Value                                
# --------------------------------------------------------------------------------------
# txn                            ApbSeqItem  -     @739                                 
#   apb_write_paddr              integral    9     'h52                                 
#   apb_read_paddr               integral    9     'h1d3                                
#   apb_write_data               integral    9     'hf3                                 
#   transfer                     integral    1     'h1                                  
#   READ_WRITE                   integral    1     'h1                                  
#   apb_read_data_out            integral    9     'h0                                  
#   begin_time                   time        64    5                                    
#   end_time                     time        64    5                                    
#   depth                        int         32    'd2                                  
#   parent sequence (name)       string      5     seq_h                                
#   parent sequence (full name)  string      37    uvm_test_top.env_h.act_h.seqr_h.seq_h
#   sequencer                    string      31    uvm_test_top.env_h.act_h.seqr_h      
# --------------------------------------------------------------------------------------
# --------------------------------------DRIVER----------------------------------
# UVM_INFO ApbScoreboard.sv(50) @ 15: uvm_test_top.env_h.scb_h [SB] Got act_trans: queue size = 1  TRANSFER =0 , READ_WRITE = 0,  APB_WRITE_PADDR = 0, APB_READ_DATA_OUT =000, APB_READ_PADDR = 0 
# ----------------------------------------------------------------------------------------------------
# ----------------------------------------------OUTPUT MONITOR-------------------------------------------------------
# UVM_INFO ApbOpMonitor.sv(42) @ 15: uvm_test_top.env_h.pass_h.op_mon_h [OUTPUT MONITOR] [15] transfer =0 , READ_WRITE =0, apb_write_paddr =000000000 , apb_write_data =00 , apb_read_paddr =0, apb_read_data=x
# ----------------------------------------------OUTPUT MONITOR-------------------------------------------------------
# UVM_INFO ApbScoreboard.sv(43) @ 15: uvm_test_top.env_h.scb_h [SB] Got exp_trans: queue size = 2  TRANSFER =0 , READ_WRITE = 0, APB_WRITE_DATA = 0, APB_WRITE_PADDR = 0, APB_READ_PADDR = 0
# ----------------------------------------------------------------------------------------------------
# ----------------------------------------------INPUT MONITOR-------------------------------------------------------
# --------------------------------------------
# Name                 Type        Size  Value
# --------------------------------------------
# ip_mon_h             ApbSeqItem  -     @685 
#   apb_write_paddr    integral    9     'h0  
#   apb_read_paddr     integral    9     'h0  
#   apb_write_data     integral    9     'h0  
#   transfer           integral    1     'h0  
#   READ_WRITE         integral    1     'h0  
#   apb_read_data_out  integral    9     'h0  
# --------------------------------------------
# WRITE ADDRESS = 000000000 
# THE RESET IS 1
# ----------------------------------------------INPUT MONITOR-------------------------------------------------------
# WRITE ADDRESS == 001100011
# UVM_INFO ApbDriver.sv(56) @ 25: uvm_test_top.env_h.act_h.drv_h [DRIVER] [25] presetn = 1, transfer = 1, READ_WRITE = 1, apb_write_paddr = 063, apb_write_data = 08e, apb_read_paddr = 1fe
# ---------------------------------DRIVER-------------------
# --------------------------------------------------------------------------------------
# Name                           Type        Size  Value                                
# --------------------------------------------------------------------------------------
# txn                            ApbSeqItem  -     @739                                 
#   apb_write_paddr              integral    9     'h63                                 
#   apb_read_paddr               integral    9     'h1fe                                
#   apb_write_data               integral    9     'h8e                                 
#   transfer                     integral    1     'h1                                  
#   READ_WRITE                   integral    1     'h1                                  
#   apb_read_data_out            integral    9     'h0                                  
#   begin_time                   time        64    15                                   
#   end_time                     time        64    15                                   
#   depth                        int         32    'd2                                  
#   parent sequence (name)       string      5     seq_h                                
#   parent sequence (full name)  string      37    uvm_test_top.env_h.act_h.seqr_h.seq_h
#   sequencer                    string      31    uvm_test_top.env_h.act_h.seqr_h      
# --------------------------------------------------------------------------------------
# --------------------------------------DRIVER----------------------------------
# UVM_INFO ApbScoreboard.sv(43) @ 25: uvm_test_top.env_h.scb_h [SB] Got exp_trans: queue size = 2  TRANSFER =1 , READ_WRITE = 1, APB_WRITE_DATA = f3, APB_WRITE_PADDR = 52, APB_READ_PADDR = 0
# ----------------------------------------------------------------------------------------------------
# ----------------------------------------------INPUT MONITOR-------------------------------------------------------
# --------------------------------------------
# Name                 Type        Size  Value
# --------------------------------------------
# ip_mon_h             ApbSeqItem  -     @685 
#   apb_write_paddr    integral    9     'h52 
#   apb_read_paddr     integral    9     'h0  
#   apb_write_data     integral    9     'hf3 
#   transfer           integral    1     'h1  
#   READ_WRITE         integral    1     'h1  
#   apb_read_data_out  integral    9     'h0  
# --------------------------------------------
# WRITE ADDRESS = 001010010 
# THE RESET IS 1
# ----------------------------------------------INPUT MONITOR-------------------------------------------------------
# UVM_INFO ApbScoreboard.sv(50) @ 25: uvm_test_top.env_h.scb_h [SB] Got act_trans: queue size = 1  TRANSFER =1 , READ_WRITE = 1,  APB_WRITE_PADDR = 52, APB_READ_DATA_OUT =000, APB_READ_PADDR = 0 
# ----------------------------------------------------------------------------------------------------
# ----------------------------------------------OUTPUT MONITOR-------------------------------------------------------
# UVM_INFO ApbOpMonitor.sv(42) @ 25: uvm_test_top.env_h.pass_h.op_mon_h [OUTPUT MONITOR] [25] transfer =1 , READ_WRITE =1, apb_write_paddr =001010010 , apb_write_data =f3 , apb_read_paddr =0, apb_read_data=x
# ----------------------------------------------OUTPUT MONITOR-------------------------------------------------------
# WRITE ADDRESS == 001100111
# UVM_INFO ApbScoreboard.sv(85) @ 25: uvm_test_top.env_h.scb_h [compare] -------------Test: PASS------------
#  EXPECTED apb_write_data = f3 ACTUAL apb_write_data = f3  EXPECTED apb_write_paddr =52 ACTUAL apb_write_apddr = 52 
# UVM_INFO ApbDriver.sv(56) @ 35: uvm_test_top.env_h.act_h.drv_h [DRIVER] [35] presetn = 1, transfer = 1, READ_WRITE = 1, apb_write_paddr = 067, apb_write_data = 075, apb_read_paddr = 045
# ---------------------------------DRIVER-------------------
# --------------------------------------------------------------------------------------
# Name                           Type        Size  Value                                
# --------------------------------------------------------------------------------------
# txn                            ApbSeqItem  -     @739                                 
#   apb_write_paddr              integral    9     'h67                                 
#   apb_read_paddr               integral    9     'h45                                 
#   apb_write_data               integral    9     'h75                                 
#   transfer                     integral    1     'h1                                  
#   READ_WRITE                   integral    1     'h1                                  
#   apb_read_data_out            integral    9     'h0                                  
#   begin_time                   time        64    25                                   
#   end_time                     time        64    25                                   
#   depth                        int         32    'd2                                  
#   parent sequence (name)       string      5     seq_h                                
#   parent sequence (full name)  string      37    uvm_test_top.env_h.act_h.seqr_h.seq_h
#   sequencer                    string      31    uvm_test_top.env_h.act_h.seqr_h      
# --------------------------------------------------------------------------------------
# --------------------------------------DRIVER----------------------------------
# UVM_INFO ApbScoreboard.sv(50) @ 35: uvm_test_top.env_h.scb_h [SB] Got act_trans: queue size = 1  TRANSFER =1 , READ_WRITE = 1,  APB_WRITE_PADDR = 63, APB_READ_DATA_OUT =000, APB_READ_PADDR = 0 
# ----------------------------------------------------------------------------------------------------
# ----------------------------------------------OUTPUT MONITOR-------------------------------------------------------
# UVM_INFO ApbOpMonitor.sv(42) @ 35: uvm_test_top.env_h.pass_h.op_mon_h [OUTPUT MONITOR] [35] transfer =1 , READ_WRITE =1, apb_write_paddr =001100011 , apb_write_data =8e , apb_read_paddr =0, apb_read_data=x
# ----------------------------------------------OUTPUT MONITOR-------------------------------------------------------
# UVM_INFO ApbScoreboard.sv(43) @ 35: uvm_test_top.env_h.scb_h [SB] Got exp_trans: queue size = 2  TRANSFER =1 , READ_WRITE = 1, APB_WRITE_DATA = 8e, APB_WRITE_PADDR = 63, APB_READ_PADDR = 0
# ----------------------------------------------------------------------------------------------------
# ----------------------------------------------INPUT MONITOR-------------------------------------------------------
# --------------------------------------------
# Name                 Type        Size  Value
# --------------------------------------------
# ip_mon_h             ApbSeqItem  -     @685 
#   apb_write_paddr    integral    9     'h63 
#   apb_read_paddr     integral    9     'h0  
#   apb_write_data     integral    9     'h8e 
#   transfer           integral    1     'h1  
#   READ_WRITE         integral    1     'h1  
#   apb_read_data_out  integral    9     'h0  
# --------------------------------------------
# WRITE ADDRESS = 001100011 
# THE RESET IS 1
# ----------------------------------------------INPUT MONITOR-------------------------------------------------------
# WRITE ADDRESS == 001000001
# UVM_INFO ApbScoreboard.sv(85) @ 35: uvm_test_top.env_h.scb_h [compare] -------------Test: PASS------------
#  EXPECTED apb_write_data = 8e ACTUAL apb_write_data = 8e  EXPECTED apb_write_paddr =63 ACTUAL apb_write_apddr = 63 
# UVM_INFO ApbDriver.sv(56) @ 45: uvm_test_top.env_h.act_h.drv_h [DRIVER] [45] presetn = 1, transfer = 1, READ_WRITE = 1, apb_write_paddr = 041, apb_write_data = 013, apb_read_paddr = 01a
# ---------------------------------DRIVER-------------------
# --------------------------------------------------------------------------------------
# Name                           Type        Size  Value                                
# --------------------------------------------------------------------------------------
# txn                            ApbSeqItem  -     @739                                 
#   apb_write_paddr              integral    9     'h41                                 
#   apb_read_paddr               integral    9     'h1a                                 
#   apb_write_data               integral    9     'h13                                 
#   transfer                     integral    1     'h1                                  
#   READ_WRITE                   integral    1     'h1                                  
#   apb_read_data_out            integral    9     'h0                                  
#   begin_time                   time        64    35                                   
#   end_time                     time        64    35                                   
#   depth                        int         32    'd2                                  
#   parent sequence (name)       string      5     seq_h                                
#   parent sequence (full name)  string      37    uvm_test_top.env_h.act_h.seqr_h.seq_h
#   sequencer                    string      31    uvm_test_top.env_h.act_h.seqr_h      
# --------------------------------------------------------------------------------------
# --------------------------------------DRIVER----------------------------------
# UVM_INFO ApbScoreboard.sv(43) @ 45: uvm_test_top.env_h.scb_h [SB] Got exp_trans: queue size = 2  TRANSFER =1 , READ_WRITE = 1, APB_WRITE_DATA = 75, APB_WRITE_PADDR = 67, APB_READ_PADDR = 0
# ----------------------------------------------------------------------------------------------------
# ----------------------------------------------INPUT MONITOR-------------------------------------------------------
# --------------------------------------------
# Name                 Type        Size  Value
# --------------------------------------------
# ip_mon_h             ApbSeqItem  -     @685 
#   apb_write_paddr    integral    9     'h67 
#   apb_read_paddr     integral    9     'h0  
#   apb_write_data     integral    9     'h75 
#   transfer           integral    1     'h1  
#   READ_WRITE         integral    1     'h1  
#   apb_read_data_out  integral    9     'h0  
# --------------------------------------------
# WRITE ADDRESS = 001100111 
# THE RESET IS 1
# ----------------------------------------------INPUT MONITOR-------------------------------------------------------
# UVM_INFO ApbScoreboard.sv(50) @ 45: uvm_test_top.env_h.scb_h [SB] Got act_trans: queue size = 1  TRANSFER =1 , READ_WRITE = 1,  APB_WRITE_PADDR = 67, APB_READ_DATA_OUT =000, APB_READ_PADDR = 0 
# ----------------------------------------------------------------------------------------------------
# ----------------------------------------------OUTPUT MONITOR-------------------------------------------------------
# UVM_INFO ApbOpMonitor.sv(42) @ 45: uvm_test_top.env_h.pass_h.op_mon_h [OUTPUT MONITOR] [45] transfer =1 , READ_WRITE =1, apb_write_paddr =001100111 , apb_write_data =75 , apb_read_paddr =0, apb_read_data=x
# ----------------------------------------------OUTPUT MONITOR-------------------------------------------------------
# UVM_INFO ApbScoreboard.sv(85) @ 45: uvm_test_top.env_h.scb_h [compare] -------------Test: PASS------------
#  EXPECTED apb_write_data = 75 ACTUAL apb_write_data = 75  EXPECTED apb_write_paddr =67 ACTUAL apb_write_apddr = 67 
# UVM_INFO verilog_src/uvm-1.1d/src/base/uvm_objection.svh(1268) @ 45: reporter [TEST_DONE] 'run' phase is ready to proceed to the 'extract' phase
# UVM_INFO ApbCoverage.sv(90) @ 45: uvm_test_top.env_h.cov_h [COVERAGE] 
#  Input coverage is 85.714286 
#  output coverage is 100.000000
# UVM_INFO ApbScoreboard.sv(121) @ 45: uvm_test_top.env_h.scb_h [ApbScoreboard] ---------------------------------------
# UVM_INFO ApbScoreboard.sv(122) @ 45: uvm_test_top.env_h.scb_h [ApbScoreboard] ----       TEST PASS COUNTS  3     ----
# UVM_INFO ApbScoreboard.sv(123) @ 45: uvm_test_top.env_h.scb_h [ApbScoreboard] ---------------------------------------
# 
# --- UVM Report Summary ---
# 
# ** Report counts by severity
# UVM_INFO :   30
# UVM_WARNING :    0
# UVM_ERROR :    0
# UVM_FATAL :    0
# ** Report counts by id
# [ApbScoreboard]     3
# [COVERAGE]     1
# [DRIVER]     5
# [OUTPUT MONITOR]     4
# [Questa UVM]     2
# [RNTST]     1
# [SB]     9
# [TEST_DONE]     1
# [UVMTOP]     1
# [compare]     3
# ** Note: $finish    : /tools/mentor/questasim_10.6c/questasim/linux/../verilog_src/uvm-1.1d/src/base/uvm_root.svh(430)
#    Time: 45 ns  Iteration: 61  Instance: /top
# End time: 10:00:54 on Apr 28,2025, Elapsed time: 0:00:07
# Errors: 0, Warnings: 0
