# vsim -c top 
# Start time: 19:06:36 on Apr 24,2025
# ** Note: (vsim-3813) Design is being optimized due to module recompilation...
# //  Questa Sim
# //  Version 10.6c linux Jul 25 2017
# //
# //  Copyright 1991-2017 Mentor Graphics Corporation
# //  All Rights Reserved.
# //
# //  QuestaSim and its associated documentation contain trade
# //  secrets and commercial or financial information that are the property of
# //  Mentor Graphics Corporation and are privileged, confidential,
# //  and exempt from disclosure under the Freedom of Information Act,
# //  5 U.S.C. Section 552. Furthermore, this information
# //  is prohibited from disclosure under the Trade Secrets Act,
# //  18 U.S.C. Section 1905.
# //
# Loading sv_std.std
# Loading mtiUvm.uvm_pkg
# Loading work.ApbTop_sv_unit(fast)
# Loading work.top(fast)
# Loading mtiUvm.questa_uvm_pkg(fast)
# Loading work.ApbInterface(fast)
# Loading /tools/mentor/questasim_10.6c/questasim/uvm-1.1d/linux/uvm_dpi.so
# ----------------------------------------------------------------
# UVM-1.1d
# (C) 2007-2013 Mentor Graphics Corporation
# (C) 2007-2013 Cadence Design Systems, Inc.
# (C) 2006-2013 Synopsys, Inc.
# (C) 2011-2013 Cypress Semiconductor Corp.
# ----------------------------------------------------------------
# 
#   ***********       IMPORTANT RELEASE NOTES         ************
# 
#   You are using a version of the UVM library that has been compiled
#   with `UVM_NO_DEPRECATED undefined.
#   See http://www.eda.org/svdb/view.php?id=3313 for more details.
# 
#   You are using a version of the UVM library that has been compiled
#   with `UVM_OBJECT_MUST_HAVE_CONSTRUCTOR undefined.
#   See http://www.eda.org/svdb/view.php?id=3770 for more details.
# 
#       (Specify +UVM_NO_RELNOTES to turn off this notice)
# 
# UVM_INFO verilog_src/questa_uvm_pkg-1.2/src/questa_uvm_pkg.sv(215) @ 0: reporter [Questa UVM] QUESTA_UVM-1.2.3
# UVM_INFO verilog_src/questa_uvm_pkg-1.2/src/questa_uvm_pkg.sv(217) @ 0: reporter [Questa UVM]  questa_uvm::init(+struct)
# UVM_INFO @ 0: reporter [RNTST] Running test ApbWriteSlave1Test...
# UVM_INFO @ 0: reporter [UVMTOP] UVM testbench topology:
# ------------------------------------------------------------------
# Name                         Type                      Size  Value
# ------------------------------------------------------------------
# uvm_test_top                 ApbWriteSlave1Test        -     @471 
#   env_h                      ApbEnvironment            -     @478 
#     act_h                    ApbActiveAgent            -     @485 
#       drv_h                  ApbDriver                 -     @537 
#         rsp_port             uvm_analysis_port         -     @552 
#         seq_item_port        uvm_seq_item_pull_port    -     @544 
#       ip_mon_h               ApbIpMonitor              -     @669 
#         item_collected_port  uvm_analysis_port         -     @676 
#       seqr_h                 ApbSequencer              -     @560 
#         rsp_export           uvm_analysis_export       -     @567 
#         seq_item_export      uvm_seq_item_pull_imp     -     @661 
#         arbitration_queue    array                     0     -    
#         lock_queue           array                     0     -    
#         num_last_reqs        integral                  32    'd1  
#         num_last_rsps        integral                  32    'd1  
#     cov_h                    ApbCoverage               -     @506 
#       analysis_imp           uvm_analysis_imp          -     @513 
#       ip_mon_imp             uvm_analysis_imp_ip_mon   -     @521 
#       op_mon_imp             uvm_analysis_imp_op_mon   -     @529 
#     pass_h                   ApbPassiveAgent           -     @492 
#       op_mon_h               ApbOpMonitor              -     @695 
#         item_collected_port  uvm_analysis_port         -     @702 
#     scb_h                    ApbScoreboard             -     @499 
#       in_mon_port            uvm_analysis_imp_in_mon   -     @715 
#       out_mon_port           uvm_analysis_imp_out_mon  -     @723 
# ------------------------------------------------------------------
# 
# --------------------------------------------
# Name                 Type        Size  Value
# --------------------------------------------
# txn                  ApbSeqItem  -     @739 
#   apb_write_paddr    integral    9     'h39 
#   apb_read_paddr     integral    9     'h195
#   apb_write_data     integral    9     'h108
#   transfer           integral    1     'h1  
#   READ_WRITE         integral    1     'h1  
#   apb_read_data_out  integral    9     'h0  
# --------------------------------------------
# UVM_INFO ApbScoreboard.sv(43) @ 5: uvm_test_top.env_h.scb_h [SB] Got exp_trans: queue size = 1  TRANSFER =0 , READ_WRITE = 0, APB_WRITE_DATA = 0, APB_WRITE_PADDR = 0, APB_READ_PADDR = 0
# ----------------------------------------------------------------------------------------------------
# --------------------------------------------
# Name                 Type        Size  Value
# --------------------------------------------
# ip_mon_h             ApbSeqItem  -     @685 
#   apb_write_paddr    integral    9     'h0  
#   apb_read_paddr     integral    9     'h0  
#   apb_write_data     integral    9     'h0  
#   transfer           integral    1     'h0  
#   READ_WRITE         integral    1     'h0  
#   apb_read_data_out  integral    9     'h0  
# --------------------------------------------
# UVM_INFO ApbScoreboard.sv(50) @ 5: uvm_test_top.env_h.scb_h [SB] Got act_trans: queue size = 1  TRANSFER =0 , READ_WRITE = 0,  APB_WRITE_PADDR = 0, APB_READ_DATA_OUT =000, APB_READ_PADDR = 0 
# ----------------------------------------------------------------------------------------------------
# UVM_INFO ApbOpMonitor.sv(39) @ 5: uvm_test_top.env_h.pass_h.op_mon_h [OUTPUT MONITOR] [5] transfer =0 , READ_WRITE =0, apb_write_paddr =000 , apb_write_data =00 , apb_read_paddr =000, apb_read_data=x
# -------------------------------------------------------------------------------------------------------------------------------
# UVM_INFO ApbScoreboard.sv(50) @ 15: uvm_test_top.env_h.scb_h [SB] Got act_trans: queue size = 1  TRANSFER =0 , READ_WRITE = 0,  APB_WRITE_PADDR = 0, APB_READ_DATA_OUT =000, APB_READ_PADDR = 0 
# ----------------------------------------------------------------------------------------------------
# UVM_INFO ApbOpMonitor.sv(39) @ 15: uvm_test_top.env_h.pass_h.op_mon_h [OUTPUT MONITOR] [15] transfer =0 , READ_WRITE =0, apb_write_paddr =000 , apb_write_data =00 , apb_read_paddr =000, apb_read_data=x
# -------------------------------------------------------------------------------------------------------------------------------
# UVM_INFO ApbScoreboard.sv(43) @ 15: uvm_test_top.env_h.scb_h [SB] Got exp_trans: queue size = 1  TRANSFER =0 , READ_WRITE = 0, APB_WRITE_DATA = 0, APB_WRITE_PADDR = 0, APB_READ_PADDR = 0
# ----------------------------------------------------------------------------------------------------
# --------------------------------------------
# Name                 Type        Size  Value
# --------------------------------------------
# ip_mon_h             ApbSeqItem  -     @685 
#   apb_write_paddr    integral    9     'h0  
#   apb_read_paddr     integral    9     'h0  
#   apb_write_data     integral    9     'h0  
#   transfer           integral    1     'h0  
#   READ_WRITE         integral    1     'h0  
#   apb_read_data_out  integral    9     'h0  
# --------------------------------------------
# UVM_INFO ApbScoreboard.sv(43) @ 25: uvm_test_top.env_h.scb_h [SB] Got exp_trans: queue size = 1  TRANSFER =0 , READ_WRITE = 0, APB_WRITE_DATA = 0, APB_WRITE_PADDR = 0, APB_READ_PADDR = 0
# ----------------------------------------------------------------------------------------------------
# --------------------------------------------
# Name                 Type        Size  Value
# --------------------------------------------
# ip_mon_h             ApbSeqItem  -     @685 
#   apb_write_paddr    integral    9     'h0  
#   apb_read_paddr     integral    9     'h0  
#   apb_write_data     integral    9     'h0  
#   transfer           integral    1     'h0  
#   READ_WRITE         integral    1     'h0  
#   apb_read_data_out  integral    9     'h0  
# --------------------------------------------
# UVM_INFO ApbScoreboard.sv(50) @ 25: uvm_test_top.env_h.scb_h [SB] Got act_trans: queue size = 1  TRANSFER =0 , READ_WRITE = 0,  APB_WRITE_PADDR = 0, APB_READ_DATA_OUT =000, APB_READ_PADDR = 0 
# ----------------------------------------------------------------------------------------------------
# UVM_INFO ApbOpMonitor.sv(39) @ 25: uvm_test_top.env_h.pass_h.op_mon_h [OUTPUT MONITOR] [25] transfer =0 , READ_WRITE =0, apb_write_paddr =000 , apb_write_data =00 , apb_read_paddr =000, apb_read_data=x
# -------------------------------------------------------------------------------------------------------------------------------
# UVM_INFO ApbScoreboard.sv(50) @ 35: uvm_test_top.env_h.scb_h [SB] Got act_trans: queue size = 1  TRANSFER =0 , READ_WRITE = 0,  APB_WRITE_PADDR = 0, APB_READ_DATA_OUT =000, APB_READ_PADDR = 0 
# ----------------------------------------------------------------------------------------------------
# UVM_INFO ApbOpMonitor.sv(39) @ 35: uvm_test_top.env_h.pass_h.op_mon_h [OUTPUT MONITOR] [35] transfer =0 , READ_WRITE =0, apb_write_paddr =000 , apb_write_data =00 , apb_read_paddr =000, apb_read_data=x
# -------------------------------------------------------------------------------------------------------------------------------
# UVM_INFO ApbScoreboard.sv(43) @ 35: uvm_test_top.env_h.scb_h [SB] Got exp_trans: queue size = 1  TRANSFER =0 , READ_WRITE = 0, APB_WRITE_DATA = 0, APB_WRITE_PADDR = 0, APB_READ_PADDR = 0
# ----------------------------------------------------------------------------------------------------
# --------------------------------------------
# Name                 Type        Size  Value
# --------------------------------------------
# ip_mon_h             ApbSeqItem  -     @685 
#   apb_write_paddr    integral    9     'h0  
#   apb_read_paddr     integral    9     'h0  
#   apb_write_data     integral    9     'h0  
#   transfer           integral    1     'h0  
#   READ_WRITE         integral    1     'h0  
#   apb_read_data_out  integral    9     'h0  
# --------------------------------------------
# UVM_INFO ApbScoreboard.sv(43) @ 45: uvm_test_top.env_h.scb_h [SB] Got exp_trans: queue size = 1  TRANSFER =0 , READ_WRITE = 0, APB_WRITE_DATA = 0, APB_WRITE_PADDR = 0, APB_READ_PADDR = 0
# ----------------------------------------------------------------------------------------------------
# --------------------------------------------
# Name                 Type        Size  Value
# --------------------------------------------
# ip_mon_h             ApbSeqItem  -     @685 
#   apb_write_paddr    integral    9     'h0  
#   apb_read_paddr     integral    9     'h0  
#   apb_write_data     integral    9     'h0  
#   transfer           integral    1     'h0  
#   READ_WRITE         integral    1     'h0  
#   apb_read_data_out  integral    9     'h0  
# --------------------------------------------
# UVM_INFO ApbScoreboard.sv(50) @ 45: uvm_test_top.env_h.scb_h [SB] Got act_trans: queue size = 1  TRANSFER =0 , READ_WRITE = 0,  APB_WRITE_PADDR = 0, APB_READ_DATA_OUT =000, APB_READ_PADDR = 0 
# ----------------------------------------------------------------------------------------------------
# UVM_INFO ApbOpMonitor.sv(39) @ 45: uvm_test_top.env_h.pass_h.op_mon_h [OUTPUT MONITOR] [45] transfer =0 , READ_WRITE =0, apb_write_paddr =000 , apb_write_data =00 , apb_read_paddr =000, apb_read_data=x
# -------------------------------------------------------------------------------------------------------------------------------
# UVM_INFO ApbScoreboard.sv(50) @ 55: uvm_test_top.env_h.scb_h [SB] Got act_trans: queue size = 1  TRANSFER =0 , READ_WRITE = 0,  APB_WRITE_PADDR = 0, APB_READ_DATA_OUT =000, APB_READ_PADDR = 0 
# ----------------------------------------------------------------------------------------------------
# UVM_INFO ApbOpMonitor.sv(39) @ 55: uvm_test_top.env_h.pass_h.op_mon_h [OUTPUT MONITOR] [55] transfer =0 , READ_WRITE =0, apb_write_paddr =000 , apb_write_data =00 , apb_read_paddr =000, apb_read_data=x
# -------------------------------------------------------------------------------------------------------------------------------
# UVM_INFO ApbScoreboard.sv(43) @ 55: uvm_test_top.env_h.scb_h [SB] Got exp_trans: queue size = 1  TRANSFER =0 , READ_WRITE = 0, APB_WRITE_DATA = 0, APB_WRITE_PADDR = 0, APB_READ_PADDR = 0
# ----------------------------------------------------------------------------------------------------
# --------------------------------------------
# Name                 Type        Size  Value
# --------------------------------------------
# ip_mon_h             ApbSeqItem  -     @685 
#   apb_write_paddr    integral    9     'h0  
#   apb_read_paddr     integral    9     'h0  
#   apb_write_data     integral    9     'h0  
#   transfer           integral    1     'h0  
#   READ_WRITE         integral    1     'h0  
#   apb_read_data_out  integral    9     'h0  
# --------------------------------------------
# UVM_INFO ApbScoreboard.sv(43) @ 65: uvm_test_top.env_h.scb_h [SB] Got exp_trans: queue size = 1  TRANSFER =0 , READ_WRITE = 0, APB_WRITE_DATA = 0, APB_WRITE_PADDR = 0, APB_READ_PADDR = 0
# ----------------------------------------------------------------------------------------------------
# --------------------------------------------
# Name                 Type        Size  Value
# --------------------------------------------
# ip_mon_h             ApbSeqItem  -     @685 
#   apb_write_paddr    integral    9     'h0  
#   apb_read_paddr     integral    9     'h0  
#   apb_write_data     integral    9     'h0  
#   transfer           integral    1     'h0  
#   READ_WRITE         integral    1     'h0  
#   apb_read_data_out  integral    9     'h0  
# --------------------------------------------
# UVM_INFO ApbScoreboard.sv(50) @ 65: uvm_test_top.env_h.scb_h [SB] Got act_trans: queue size = 1  TRANSFER =0 , READ_WRITE = 0,  APB_WRITE_PADDR = 0, APB_READ_DATA_OUT =000, APB_READ_PADDR = 0 
# ----------------------------------------------------------------------------------------------------
# UVM_INFO ApbOpMonitor.sv(39) @ 65: uvm_test_top.env_h.pass_h.op_mon_h [OUTPUT MONITOR] [65] transfer =0 , READ_WRITE =0, apb_write_paddr =000 , apb_write_data =00 , apb_read_paddr =000, apb_read_data=x
# -------------------------------------------------------------------------------------------------------------------------------
# UVM_INFO ApbScoreboard.sv(50) @ 75: uvm_test_top.env_h.scb_h [SB] Got act_trans: queue size = 1  TRANSFER =0 , READ_WRITE = 0,  APB_WRITE_PADDR = 0, APB_READ_DATA_OUT =000, APB_READ_PADDR = 0 
# ----------------------------------------------------------------------------------------------------
# UVM_INFO ApbOpMonitor.sv(39) @ 75: uvm_test_top.env_h.pass_h.op_mon_h [OUTPUT MONITOR] [75] transfer =0 , READ_WRITE =0, apb_write_paddr =000 , apb_write_data =00 , apb_read_paddr =000, apb_read_data=x
# -------------------------------------------------------------------------------------------------------------------------------
# UVM_INFO ApbScoreboard.sv(43) @ 75: uvm_test_top.env_h.scb_h [SB] Got exp_trans: queue size = 1  TRANSFER =0 , READ_WRITE = 0, APB_WRITE_DATA = 0, APB_WRITE_PADDR = 0, APB_READ_PADDR = 0
# ----------------------------------------------------------------------------------------------------
# --------------------------------------------
# Name                 Type        Size  Value
# --------------------------------------------
# ip_mon_h             ApbSeqItem  -     @685 
#   apb_write_paddr    integral    9     'h0  
#   apb_read_paddr     integral    9     'h0  
#   apb_write_data     integral    9     'h0  
#   transfer           integral    1     'h0  
#   READ_WRITE         integral    1     'h0  
#   apb_read_data_out  integral    9     'h0  
# --------------------------------------------
# UVM_INFO ApbScoreboard.sv(43) @ 85: uvm_test_top.env_h.scb_h [SB] Got exp_trans: queue size = 1  TRANSFER =0 , READ_WRITE = 0, APB_WRITE_DATA = 0, APB_WRITE_PADDR = 0, APB_READ_PADDR = 0
# ----------------------------------------------------------------------------------------------------
# --------------------------------------------
# Name                 Type        Size  Value
# --------------------------------------------
# ip_mon_h             ApbSeqItem  -     @685 
#   apb_write_paddr    integral    9     'h0  
#   apb_read_paddr     integral    9     'h0  
#   apb_write_data     integral    9     'h0  
#   transfer           integral    1     'h0  
#   READ_WRITE         integral    1     'h0  
#   apb_read_data_out  integral    9     'h0  
# --------------------------------------------
# UVM_INFO ApbScoreboard.sv(50) @ 85: uvm_test_top.env_h.scb_h [SB] Got act_trans: queue size = 1  TRANSFER =0 , READ_WRITE = 0,  APB_WRITE_PADDR = 0, APB_READ_DATA_OUT =000, APB_READ_PADDR = 0 
# ----------------------------------------------------------------------------------------------------
# UVM_INFO ApbOpMonitor.sv(39) @ 85: uvm_test_top.env_h.pass_h.op_mon_h [OUTPUT MONITOR] [85] transfer =0 , READ_WRITE =0, apb_write_paddr =000 , apb_write_data =00 , apb_read_paddr =000, apb_read_data=x
# -------------------------------------------------------------------------------------------------------------------------------
# UVM_INFO ApbScoreboard.sv(50) @ 95: uvm_test_top.env_h.scb_h [SB] Got act_trans: queue size = 1  TRANSFER =0 , READ_WRITE = 0,  APB_WRITE_PADDR = 0, APB_READ_DATA_OUT =000, APB_READ_PADDR = 0 
# ----------------------------------------------------------------------------------------------------
# UVM_INFO ApbOpMonitor.sv(39) @ 95: uvm_test_top.env_h.pass_h.op_mon_h [OUTPUT MONITOR] [95] transfer =0 , READ_WRITE =0, apb_write_paddr =000 , apb_write_data =00 , apb_read_paddr =000, apb_read_data=x
# -------------------------------------------------------------------------------------------------------------------------------
# UVM_INFO ApbScoreboard.sv(43) @ 95: uvm_test_top.env_h.scb_h [SB] Got exp_trans: queue size = 1  TRANSFER =0 , READ_WRITE = 0, APB_WRITE_DATA = 0, APB_WRITE_PADDR = 0, APB_READ_PADDR = 0
# ----------------------------------------------------------------------------------------------------
# --------------------------------------------
# Name                 Type        Size  Value
# --------------------------------------------
# ip_mon_h             ApbSeqItem  -     @685 
#   apb_write_paddr    integral    9     'h0  
#   apb_read_paddr     integral    9     'h0  
#   apb_write_data     integral    9     'h0  
#   transfer           integral    1     'h0  
#   READ_WRITE         integral    1     'h0  
#   apb_read_data_out  integral    9     'h0  
# --------------------------------------------
# UVM_INFO verilog_src/uvm-1.1d/src/base/uvm_objection.svh(1268) @ 105: reporter [TEST_DONE] 'run' phase is ready to proceed to the 'extract' phase
# UVM_INFO ApbCoverage.sv(90) @ 105: uvm_test_top.env_h.cov_h [COVERAGE] 
#  Input coverage is 71.428571 
#  output coverage is 100.000000
# 
# --- UVM Report Summary ---
# 
# ** Report counts by severity
# UVM_INFO :   36
# UVM_WARNING :    0
# UVM_ERROR :    0
# UVM_FATAL :    0
# ** Report counts by id
# [COVERAGE]     1
# [OUTPUT MONITOR]    10
# [Questa UVM]     2
# [RNTST]     1
# [SB]    20
# [TEST_DONE]     1
# [UVMTOP]     1
# ** Note: $finish    : /tools/mentor/questasim_10.6c/questasim/linux/../verilog_src/uvm-1.1d/src/base/uvm_root.svh(430)
#    Time: 105 ns  Iteration: 54  Instance: /top
# End time: 19:06:43 on Apr 24,2025, Elapsed time: 0:00:07
# Errors: 0, Warnings: 0
